(1613256099.296767) can0 682#00
(1613256099.346892) can0 358#0102800000030000
(1613256099.347084) can0 35D#0003000000000000
(1613256099.347385) can0 60D#0800182600000000
(1613256099.361267) can0 215#FFF0FF04FFFF
(1613256099.361610) can0 216#4000
(1613256099.361961) can0 625#3200FF0E1000
(1613256099.366512) can0 625#0200FF0E1000
(1613256099.376392) can0 215#FFF0FF04FFFF
(1613256099.376737) can0 216#4000
(1613256099.382767) can0 280#01FFC0000000FFC0
(1613256099.382967) can0 5C5#8000E653000C007F
(1613256099.387890) can0 2DE#0000800A00000FF0
(1613256099.388092) can0 355#0000FFFF200060
(1613256099.396392) can0 215#FFF0FF04FFFF
(1613256099.396756) can0 216#4000
(1613256099.397883) can0 2DE#0000800A00000FF0
(1613256099.402765) can0 280#01FFC0000000FFC0
(1613256099.407891) can0 2DE#0000800A00000FF0
(1613256099.416391) can0 215#FFF0FF04FFFF
(1613256099.416734) can0 216#4000
(1613256099.417214) can0 625#0200FF0D1000
(1613256099.417759) can0 2DE#0000800A00000FF0
(1613256099.422765) can0 280#01FFC0000000FFC0
(1613256099.427886) can0 2DE#0000800A00000FF0
(1613256099.428093) can0 355#0000FFFF200060
(1613256099.436390) can0 215#FFF0FF04FFFF
(1613256099.436732) can0 216#4000
(1613256099.437883) can0 2DE#0000800A00000FF0
(1613256099.442765) can0 280#01FFC0000000FFC0
(1613256099.446765) can0 358#0102800000030000
(1613256099.446807) can0 35D#0003000000000000
(1613256099.447091) can0 60D#0800182600000000
(1613256099.447885) can0 2DE#0000800A00000FF0
(1613256099.456390) can0 215#FFF0FF04FFFF
(1613256099.456714) can0 216#4000
(1613256099.457883) can0 2DE#0000800A00000FF0
(1613256099.462766) can0 280#01FFC0000000FFC0
(1613256099.467888) can0 2DE#0000800A00000FF0
(1613256099.467930) can0 355#0000FFFF200060
(1613256099.476389) can0 215#FFF0FF04FFFF
(1613256099.476713) can0 216#4000
(1613256099.477882) can0 2DE#0000800A00000FF0
(1613256099.482765) can0 280#01FFC0000000FFC0
(1613256099.482976) can0 5C5#4000E653000C007F
(1613256099.487888) can0 2DE#0000800A00000FF0
(1613256099.496390) can0 215#FFF0FF04FFFF
(1613256099.496710) can0 216#4000
(1613256099.497760) can0 2DE#0000800A00000FF0
(1613256099.502758) can0 280#01FFC0000000FFC0
(1613256099.507891) can0 2DE#0000800A00000FF0
(1613256099.507932) can0 355#0000FFFF200060
(1613256099.516512) can0 215#FFF0FF04FFFF
(1613256099.516705) can0 216#4000
(1613256099.517257) can0 625#0200FF0D1000
(1613256099.517883) can0 2DE#0000800A00000FF0
(1613256099.522761) can0 280#01FFC0000000FFC0
(1613256099.527888) can0 2DE#0000800A00000FF0
(1613256099.536514) can0 215#FFF0FF04FFFF
(1613256099.536725) can0 216#4000
(1613256099.537759) can0 2DE#0000800A00000FF0
(1613256099.542764) can0 280#01FFC0000000FFC0
(1613256099.546516) can0 358#0102800000030000
(1613256099.546704) can0 35D#0003000000000000
(1613256099.546996) can0 60D#0800182600000000
(1613256099.548012) can0 2DE#0000800A00000FF0
(1613256099.548053) can0 355#0000FFFF200060
(1613256099.556514) can0 215#FFF0FF04FFFF
(1613256099.556725) can0 216#4000
(1613256099.557757) can0 2DE#0000800A00000FF0
(1613256099.562763) can0 280#01FFC0000000FFC0
(1613256099.567759) can0 2DE#0000800A00000FF0
(1613256099.576512) can0 215#FFF0FF04FFFF
(1613256099.576859) can0 216#4000
(1613256099.577883) can0 2DE#0000800A00000FF0
(1613256099.582760) can0 280#01FFC0000000FFC0
(1613256099.582975) can0 5C5#4000E653000C007F
(1613256099.587891) can0 2DE#0000800A00000FF0
(1613256099.587931) can0 355#0000FFFF200060
(1613256099.596513) can0 215#FFF0FF04FFFF
(1613256099.596858) can0 216#4000
(1613256099.597754) can0 2DE#0000800A00000FF0
(1613256099.602759) can0 280#01FFC0000000FFC0
(1613256099.607889) can0 2DE#0000800A00000FF0
(1613256099.616514) can0 215#FFF0FF04FFFF
(1613256099.616859) can0 216#4000
(1613256099.617337) can0 625#0200FF0D1000
(1613256099.617709) can0 2DE#0000800A00000FF0
(1613256099.622761) can0 280#01FFC0000000FFC0
(1613256099.627890) can0 2DE#0000800A00000FF0
(1613256099.627931) can0 355#0000FFFF200060
(1613256099.636513) can0 215#FFF0FF04FFFF
(1613256099.636835) can0 216#4000
(1613256099.637881) can0 2DE#0000800A00000FF0
(1613256099.642764) can0 280#01FFC0000000FFC0
(1613256099.646387) can0 358#0102800000030000
(1613256099.646592) can0 35D#0003000000000000
(1613256099.646712) can0 60D#0800182600000000
(1613256099.647886) can0 2DE#0000800A00000FF0
(1613256099.656512) can0 215#FFF0FF04FFFF
(1613256099.656852) can0 216#4000
(1613256099.657753) can0 2DE#0000800A00000FF0
(1613256099.662762) can0 280#01FFC0000000FFC0
(1613256099.667764) can0 2DE#0000800A00000FF0
(1613256099.667976) can0 355#0000FFFF200060
(1613256099.676513) can0 215#FFF0FF04FFFF
(1613256099.676860) can0 216#4000
(1613256099.677755) can0 2DE#0000800A00000FF0
(1613256099.682759) can0 280#01FFC0000000FFC0
(1613256099.682977) can0 5C5#4000E653000C007F
(1613256099.687763) can0 2DE#0000800A00000FF0
(1613256099.696637) can0 215#FFF0FF04FFFF
(1613256099.696836) can0 216#4000
(1613256099.697758) can0 2DE#0000800A00000FF0
(1613256099.702762) can0 280#01FFC0000000FFC0
(1613256099.707766) can0 2DE#0000800A00000FF0
(1613256099.707973) can0 355#0000FFFF200060
(1613256099.716637) can0 215#FFF0FF04FFFF
(1613256099.716849) can0 216#4000
(1613256099.717379) can0 625#0200FF0D1000
(1613256099.717715) can0 2DE#0000800A00000FF0
(1613256099.722762) can0 280#01FFC0000000FFC0
(1613256099.727873) can0 2DE#0000800A00000FF0
(1613256099.736628) can0 215#FFF0FF04FFFF
(1613256099.736830) can0 216#4000
(1613256099.737748) can0 2DE#0000800A00000FF0
(1613256099.742753) can0 280#01FFC0000000FFC0
(1613256099.746127) can0 358#0102800000030000
(1613256099.746330) can0 35D#0003000000000000
(1613256099.746606) can0 60D#0800182600000000
(1613256099.747873) can0 2DE#0000800A00000FF0
(1613256099.748080) can0 355#0000FFFF200060
(1613256099.756629) can0 215#FFF0FF04FFFF
(1613256099.756982) can0 216#4000
(1613256099.757743) can0 2DE#0000800A00000FF0
(1613256099.762756) can0 280#01FFC0000000FFC0
(1613256099.767753) can0 2DE#0000800A00000FF0
(1613256099.776630) can0 215#FFF0FF04FFFF
(1613256099.776961) can0 216#4000
(1613256099.777743) can0 2DE#0000800A00000FF0
(1613256099.782754) can0 280#01FFC0000000FFC0
(1613256099.782800) can0 5C5#4000E653000C007F
(1613256099.787757) can0 2DE#0000800A00000FF0
(1613256099.787964) can0 355#0000FFFF200060
(1613256099.796627) can0 215#FFF0FF04FFFF
(1613256099.796982) can0 216#4000
(1613256099.797749) can0 2DE#0000800A00000FF0
(1613256099.802749) can0 280#01FFC0000000FFC0
(1613256099.807754) can0 2DE#0000800A00000FF0
(1613256099.816751) can0 215#FFF0FF04FFFF
(1613256099.816962) can0 216#4000
(1613256099.817487) can0 625#0200FF0D1000
(1613256099.817705) can0 2DE#0000800A00000FF0
(1613256099.822747) can0 280#01FFC0000000FFC0
(1613256099.827753) can0 2DE#0000800A00000FF0
(1613256099.827965) can0 355#0000FFFF200060
(1613256099.836752) can0 215#FFF0FF04FFFF
(1613256099.836963) can0 216#4000
(1613256099.837743) can0 2DE#0000800A00000FF0
(1613256099.842752) can0 280#01FFC0000000FFC0
(1613256099.846003) can0 358#0102800000030000
(1613256099.846211) can0 35D#0003000000000000
(1613256099.846491) can0 60D#0800182600000000
(1613256099.847874) can0 2DE#0000800A00000FF0
(1613256099.856752) can0 215#FFF0FF04FFFF
(1613256099.856963) can0 216#4000
(1613256099.857739) can0 2DE#0000800A00000FF0
(1613256099.862755) can0 280#01FFC0000000FFC0
(1613256099.867752) can0 2DE#0000800A00000FF0
(1613256099.867963) can0 355#0000FFFF200060
(1613256099.876752) can0 215#FFF0FF04FFFF
(1613256099.876963) can0 216#4000
(1613256099.877871) can0 2DE#0000800A00000FF0
(1613256099.882751) can0 280#01FFC0000000FFC0
(1613256099.882798) can0 5C5#4000E653000C007F
(1613256099.887750) can0 2DE#0000800A00000FF0
(1613256099.896753) can0 215#FFF0FF04FFFF
(1613256099.896954) can0 216#4000
(1613256099.897743) can0 2DE#0000800A00000FF0
(1613256099.902746) can0 280#01FFC0000000FFC0
(1613256099.907752) can0 2DE#0000800A00000FF0
(1613256099.907965) can0 355#0000FFFF200060
(1613256099.916698) can0 215#FFF0FF04FFFF
(1613256099.916948) can0 216#4000
(1613256099.917449) can0 625#0200FF0D1000
(1613256099.917669) can0 2DE#0000800A00000FF0
(1613256099.922744) can0 280#01FFC0000000FFC0
(1613256099.927748) can0 2DE#0000800A00000FF0
(1613256099.936752) can0 215#FFF0FF04FFFF
(1613256099.937106) can0 216#4000
(1613256099.937709) can0 2DE#0000800A00000FF0
(1613256099.942750) can0 280#01FFC0000000FFC0
(1613256099.945752) can0 358#0102800000030000
(1613256099.945953) can0 35D#0003000000000000
(1613256099.946205) can0 60D#0800182600000000
(1613256099.947871) can0 2DE#0000800A00000FF0
(1613256099.948086) can0 355#0000FFFF200060
(1613256099.956751) can0 215#FFF0FF04FFFF
(1613256099.957105) can0 216#4000
(1613256099.957699) can0 2DE#0000800A00000FF0
(1613256099.962750) can0 280#01FFC0000000FFC0
(1613256099.967747) can0 2DE#0000800A00000FF0
(1613256099.976750) can0 215#FFF0FF04FFFF
(1613256099.977105) can0 216#4000
(1613256099.977707) can0 2DE#0000800A00000FF0
(1613256099.982754) can0 280#01FFC0000000FFC0
(1613256099.982799) can0 5C5#4000E653000C007F
(1613256099.987750) can0 2DE#0000800A00000FF0
(1613256099.987965) can0 355#0000FFFF200060
(1613256099.996751) can0 215#FFF0FF04FFFF
(1613256099.997082) can0 216#4000
(1613256099.997701) can0 2DE#0000800A00000FF0
(1613256100.002752) can0 280#01FFC0000000FFC0
(1613256100.007750) can0 2DE#0000800A00000FF0
(1613256100.016750) can0 215#FFF0FF04FFFF
(1613256100.017081) can0 216#4000
(1613256100.017584) can0 625#0200FF0D1000
(1613256100.017854) can0 2DE#0000800A00000FF0
(1613256100.022748) can0 280#01FFC0000000FFC0
(1613256100.027752) can0 2DE#0000800A00000FF0
(1613256100.027963) can0 355#0000FFFF200060
(1613256100.036750) can0 215#FFF0FF04FFFF
(1613256100.037083) can0 216#4000
(1613256100.037735) can0 2DE#0000800A00000FF0
(1613256100.042750) can0 280#01FFC0000000FFC0
(1613256100.045626) can0 358#0102800000030000
(1613256100.045836) can0 35D#0003000000000000
(1613256100.046112) can0 60D#0800182600000000
(1613256100.047871) can0 2DE#0000800A00000FF0
(1613256100.056875) can0 215#FFF0FF04FFFF
(1613256100.057087) can0 216#4000
(1613256100.057735) can0 2DE#0000800A00000FF0
(1613256100.062750) can0 280#01FFC0000000FFC0
(1613256100.067750) can0 2DE#0000800A00000FF0
(1613256100.067961) can0 355#0000FFFF200060
(1613256100.076875) can0 215#FFF0FF04FFFF
(1613256100.077088) can0 216#4000
(1613256100.077743) can0 2DE#0000800A00000FF0
(1613256100.082746) can0 280#01FFC0000000FFC0
(1613256100.082792) can0 5C5#4000E653000C007F
(1613256100.087749) can0 2DE#0000800A00000FF0
(1613256100.096874) can0 215#FFF0FF04FFFF
(1613256100.097087) can0 216#4000
(1613256100.097742) can0 2DE#0000800A00000FF0
(1613256100.102751) can0 280#01FFC0000000FFC0
(1613256100.107753) can0 2DE#0000800A00000FF0
(1613256100.107919) can0 355#0000FFFF200060
(1613256100.116885) can0 215#FFF0FF04FFFF
(1613256100.117229) can0 216#4000
(1613256100.117706) can0 625#0200FF0D1000
(1613256100.117981) can0 2DE#0000800A00000FF0
(1613256100.122759) can0 280#01FFC0000000FFC0
(1613256100.127761) can0 2DE#0000800A00000FF0
(1613256100.136886) can0 215#FFF0FF04FFFF
(1613256100.137207) can0 216#4000
(1613256100.137699) can0 2DE#0000800A00000FF0
(1613256100.142637) can0 280#01FFC0000000FFC0
(1613256100.145384) can0 358#0102800000030000
(1613256100.145705) can0 35D#0003000000000000
(1613256100.145823) can0 60D#0800182600000000
(1613256100.147881) can0 2DE#0000800A00000FF0
(1613256100.148075) can0 355#0000FFFF200060
(1613256100.156888) can0 215#FFF0FF04FFFF
(1613256100.157229) can0 216#4000
(1613256100.157712) can0 2DE#0000800A00000FF0
(1613256100.162759) can0 280#01FFC0000000FFC0
(1613256100.167756) can0 2DE#0000800A00000FF0
(1613256100.176885) can0 215#FFF0FF04FFFF
(1613256100.177206) can0 216#4000
(1613256100.177700) can0 2DE#0000800A00000FF0
(1613256100.182759) can0 280#01FFC0000000FFC0
(1613256100.182802) can0 5C5#4000E653000C007F
(1613256100.187756) can0 2DE#0000800A00000FF0
(1613256100.187950) can0 355#0000FFFF200060
(1613256100.196878) can0 215#FFF0FF04FFFF
(1613256100.197204) can0 216#4000
(1613256100.197707) can0 2DE#0000800A00000FF0
(1613256100.202756) can0 280#01FFC0000000FFC0
(1613256100.207705) can0 2DE#0000800A00000FF0
(1613256100.216885) can0 215#FFF0FF04FFFF
(1613256100.217205) can0 216#4000
(1613256100.217712) can0 2DE#0000800A00000FF0
(1613256100.217988) can0 625#0200FF0D1000
(1613256100.222761) can0 280#01FFC0000000FFC0
(1613256100.227755) can0 2DE#0000800A00000FF0
(1613256100.227945) can0 355#0000FFFF200060
(1613256100.237004) can0 215#FFF0FF04FFFF
(1613256100.237199) can0 216#4000
(1613256100.237750) can0 2DE#0000800A00000FF0
(1613256100.242633) can0 280#01FFC0000000FFC0
(1613256100.245259) can0 358#0102800000030000
(1613256100.245449) can0 35D#0003000000000000
(1613256100.245728) can0 60D#0800182600000000
(1613256100.247880) can0 2DE#0000800A00000FF0
(1613256100.257009) can0 215#FFF0FF04FFFF
(1613256100.257220) can0 216#4000
(1613256100.257750) can0 2DE#0000800A00000FF0
(1613256100.262634) can0 280#01FFC0000000FFC0
(1613256100.267760) can0 2DE#0000800A00000FF0
(1613256100.267972) can0 355#0000FFFF200060
(1613256100.277007) can0 215#FFF0FF04FFFF
(1613256100.277220) can0 216#4000
(1613256100.277748) can0 2DE#0000800A00000FF0
(1613256100.282759) can0 280#01FFC0000000FFC0
(1613256100.282765) can0 5C5#4000E653000C007F
(1613256100.287762) can0 2DE#0000800A00000FF0
(1613256100.297008) can0 215#FFF0FF04FFFF
(1613256100.297352) can0 216#4000
(1613256100.297710) can0 2DE#0000800A00000FF0
(1613256100.302629) can0 280#01FFC0000000FFC0
(1613256100.307758) can0 2DE#0000800A00000FF0
(1613256100.307948) can0 355#0000FFFF200060
(1613256100.317006) can0 215#FFF0FF04FFFF
(1613256100.317352) can0 216#4000
(1613256100.317703) can0 2DE#0000800A00000FF0
(1613256100.317978) can0 625#0200FF0D1000
(1613256100.322634) can0 280#01FFC0000000FFC0
(1613256100.327757) can0 2DE#0000800A00000FF0
(1613256100.337008) can0 215#FFF0FF04FFFF
(1613256100.337352) can0 216#4000
(1613256100.337706) can0 2DE#0000800A00000FF0
(1613256100.342756) can0 280#01FFC0000000FFC0
(1613256100.345007) can0 358#0102800000030000
(1613256100.345199) can0 35D#0003000000000000
(1613256100.345456) can0 60D#0800182600000000
(1613256100.347879) can0 2DE#0000800A00000FF0
(1613256100.348071) can0 355#0000FFFF200060
(1613256100.357008) can0 215#FFF0FF04FFFF
(1613256100.357330) can0 216#4000
(1613256100.357708) can0 2DE#0000800A00000FF0
(1613256100.362631) can0 280#01FFC0000000FFC0
(1613256100.367757) can0 2DE#0000800A00000FF0
(1613256100.377008) can0 215#FFF0FF04FFFF
(1613256100.377332) can0 216#4000
(1613256100.377715) can0 2DE#0000800A00000FF0
(1613256100.382757) can0 280#01FFC0000000FFC0
(1613256100.382763) can0 5C5#4000E653000C007F
(1613256100.387757) can0 2DE#0000800A00000FF0
(1613256100.387947) can0 355#0000FFFF200060
(1613256100.397007) can0 215#FFF0FF04FFFF
(1613256100.397328) can0 216#4000
(1613256100.397713) can0 2DE#0000800A00000FF0
(1613256100.402632) can0 280#01FFC0000000FFC0
(1613256100.407758) can0 2DE#0000800A00000FF0
(1613256100.417132) can0 215#FFF0FF04FFFF
(1613256100.417343) can0 216#4000
(1613256100.417702) can0 2DE#0000800A00000FF0
(1613256100.417971) can0 625#0200FF0D1000
(1613256100.422634) can0 280#01FFC0000000FFC0
(1613256100.427759) can0 2DE#0000800A00000FF0
(1613256100.427950) can0 355#0000FFFF200060
(1613256100.437133) can0 215#FFF0FF04FFFF
(1613256100.437322) can0 216#4000
(1613256100.437703) can0 2DE#0000800A00000FF0
(1613256100.442632) can0 280#01FFC0000000FFC0
(1613256100.444883) can0 358#0102800000030000
(1613256100.445070) can0 35D#0003000000000000
(1613256100.445347) can0 60D#0800182600000000
(1613256100.447881) can0 2DE#0000800A00000FF0
(1613256100.457132) can0 215#FFF0FF04FFFF
(1613256100.457334) can0 216#4000
(1613256100.457702) can0 2DE#0000800A00000FF0
(1613256100.462634) can0 280#01FFC0000000FFC0
(1613256100.467752) can0 2DE#0000800A00000FF0
(1613256100.467959) can0 355#0000FFFF200060
(1613256100.477134) can0 215#FFF0FF04FFFF
(1613256100.477478) can0 216#4000
(1613256100.477735) can0 2DE#0000800A00000FF0
(1613256100.482616) can0 280#01FFC0000000FFC0
(1613256100.482832) can0 5C5#4000E653000C007F
(1613256100.487759) can0 2DE#0000800A00000FF0
(1613256100.497133) can0 215#FFF0FF04FFFF
(1613256100.497456) can0 216#4000
(1613256100.497730) can0 2DE#0000800A00000FF0
(1613256100.502627) can0 280#01FFC0000000FFC0
(1613256100.507753) can0 2DE#0000800A00000FF0
(1613256100.507959) can0 355#0000FFFF200060
(1613256100.517046) can0 215#FFF0FF04FFFF
(1613256100.517436) can0 216#4000
(1613256100.517666) can0 2DE#0000800A00000FF0
(1613256100.517915) can0 625#0200FF0D1000
(1613256100.522624) can0 280#01FFC0000000FFC0
(1613256100.527752) can0 2DE#0000800A00000FF0
(1613256100.537134) can0 215#FFF0FF04FFFF
(1613256100.537450) can0 216#4000
(1613256100.537730) can0 2DE#0000800A00000FF0
(1613256100.542630) can0 280#01FFC0000000FFC0
(1613256100.544756) can0 358#0102800000030000
(1613256100.544947) can0 35D#0003000000000000
(1613256100.545069) can0 60D#0800182600000000
(1613256100.547878) can0 2DE#0000800A00000FF0
(1613256100.548070) can0 355#0000FFFF200060
(1613256100.557126) can0 215#FFF0FF04FFFF
(1613256100.557453) can0 216#4000
(1613256100.557722) can0 2DE#0000800A00000FF0
(1613256100.562626) can0 280#01FFC0000000FFC0
(1613256100.567758) can0 2DE#0000800A00000FF0
(1613256100.577131) can0 215#FFF0FF04FFFF
(1613256100.577452) can0 216#4000
(1613256100.577732) can0 2DE#0000800A00000FF0
(1613256100.582631) can0 280#01FFC0000000FFC0
(1613256100.582822) can0 5C5#4000E653000C007F
(1613256100.587752) can0 2DE#0000800A00000FF0
(1613256100.587948) can0 355#0000FFFF200060
(1613256100.597252) can0 215#FFF0FF04FFFF
(1613256100.597466) can0 216#4000
(1613256100.597700) can0 2DE#0000800A00000FF0
(1613256100.602627) can0 280#01FFC0000000FFC0
(1613256100.607752) can0 2DE#0000800A00000FF0
(1613256100.617257) can0 215#FFF0FF04FFFF
(1613256100.617446) can0 216#4000
(1613256100.617708) can0 2DE#0000800A00000FF0
(1613256100.617951) can0 625#0200FF0D1000
(1613256100.622625) can0 280#01FFC0000000FFC0
(1613256100.627755) can0 2DE#0000800A00000FF0
(1613256100.627965) can0 355#0000FFFF200060
(1613256100.637256) can0 215#FFF0FF04FFFF
(1613256100.637467) can0 216#4000
(1613256100.637702) can0 2DE#0000800A00000FF0
(1613256100.642628) can0 280#01FFC0000000FFC0
(1613256100.644506) can0 358#0102800000030000
(1613256100.644697) can0 35D#0003000000000000
(1613256100.644976) can0 60D#0800182600000000
(1613256100.647876) can0 2DE#0000800A00000FF0
(1613256100.657246) can0 215#FFF0FF04FFFF
(1613256100.657600) can0 216#4000
(1613256100.657830) can0 2DE#0000800A00000FF0
(1613256100.662618) can0 280#01FFC0000000FFC0
(1613256100.667745) can0 2DE#0000800A00000FF0
(1613256100.667958) can0 355#0000FFFF200060
(1613256100.677245) can0 215#FFF0FF04FFFF
(1613256100.677603) can0 216#4000
(1613256100.677830) can0 2DE#0000800A00000FF0
(1613256100.682621) can0 280#01FFC0000000FFC0
(1613256100.682831) can0 5C5#4000E653000C007F
(1613256100.687741) can0 2DE#0000800A00000FF0
(1613256100.697247) can0 215#FFF0FF04FFFF
(1613256100.697602) can0 216#4000
(1613256100.697830) can0 2DE#0000800A00000FF0
(1613256100.702616) can0 280#01FFC0000000FFC0
(1613256100.707742) can0 2DE#0000800A00000FF0
(1613256100.707956) can0 355#0000FFFF200060
(1613256100.717241) can0 215#FFF0FF04FFFF
(1613256100.717578) can0 216#4000
(1613256100.717858) can0 2DE#0000800A00000FF0
(1613256100.718079) can0 625#0200FF0D1000
(1613256100.722615) can0 280#01FFC0000000FFC0
(1613256100.727745) can0 2DE#0000800A00000FF0
(1613256100.737242) can0 215#FFF0FF04FFFF
(1613256100.737732) can0 2DE#0000800A00000FF0
(1613256100.737738) can0 216#4000
(1613256100.742617) can0 280#01FFC0000000FFC0
(1613256100.744333) can0 358#0102800000030000
(1613256100.744592) can0 35D#0003000000000000
(1613256100.744828) can0 60D#0800182600000000
(1613256100.747865) can0 2DE#0000800A00000FF0
(1613256100.748054) can0 355#0000FFFF200060
(1613256100.757255) can0 215#FFF0FF04FFFF
(1613256100.757576) can0 216#4000
(1613256100.757827) can0 2DE#0000800A00000FF0
(1613256100.762629) can0 280#01FFC0000000FFC0
(1613256100.767753) can0 2DE#0000800A00000FF0
(1613256100.777381) can0 215#FFF0FF04FFFF
(1613256100.777702) can0 2DE#0000800A00000FF0
(1613256100.777821) can0 216#4000
(1613256100.782625) can0 280#01FFC0000000FFC0
(1613256100.782831) can0 5C5#4000E653000C007F
(1613256100.787753) can0 2DE#0000800A00000FF0
(1613256100.787948) can0 355#0000FFFF200060
(1613256100.797380) can0 215#FFF0FF04FFFF
(1613256100.797726) can0 2DE#0000800A00000FF0
(1613256100.797732) can0 216#4000
(1613256100.802629) can0 280#01FFC0000000FFC0
(1613256100.807751) can0 2DE#0000800A00000FF0
(1613256100.817255) can0 215#FFF0FF04FFFF
(1613256100.817720) can0 2DE#0000800A00000FF0
(1613256100.817726) can0 216#4000
(1613256100.818371) can0 625#0200FF0D1000
(1613256100.822629) can0 280#01FFC0000000FFC0
(1613256100.827750) can0 2DE#0000800A00000FF0
(1613256100.827946) can0 355#0000FFFF200060
(1613256100.837379) can0 215#FFF0FF04FFFF
(1613256100.837700) can0 2DE#0000800A00000FF0
(1613256100.837819) can0 216#4000
(1613256100.842628) can0 280#01FFC0000000FFC0
(1613256100.844129) can0 358#0102800000030000
(1613256100.844340) can0 35D#0003000000000000
(1613256100.844572) can0 60D#0800182600000000
(1613256100.847876) can0 2DE#0000800A00000FF0
(1613256100.857379) can0 215#FFF0FF04FFFF
(1613256100.857724) can0 2DE#0000800A00000FF0
(1613256100.857728) can0 216#4000
(1613256100.862626) can0 280#01FFC0000000FFC0
(1613256100.867752) can0 2DE#0000800A00000FF0
(1613256100.867951) can0 355#0000FFFF200060
(1613256100.877380) can0 215#FFF0FF04FFFF
(1613256100.877699) can0 2DE#0000800A00000FF0
(1613256100.877819) can0 216#4000
(1613256100.882624) can0 280#01FFC0000000FFC0
(1613256100.882833) can0 5C5#4000E653000C007F
(1613256100.887754) can0 2DE#0000800A00000FF0
(1613256100.897379) can0 215#FFF0FF04FFFF
(1613256100.897697) can0 2DE#0000800A00000FF0
(1613256100.897817) can0 216#4000
(1613256100.902628) can0 280#01FFC0000000FFC0
(1613256100.907753) can0 2DE#0000800A00000FF0
(1613256100.907944) can0 355#0000FFFF200060
(1613256100.917379) can0 215#FFF0FF04FFFF
(1613256100.917699) can0 2DE#0000800A00000FF0
(1613256100.917703) can0 216#4000
(1613256100.918199) can0 625#0200FF0D1000
(1613256100.922628) can0 280#01FFC0000000FFC0
(1613256100.927753) can0 2DE#0000800A00000FF0
(1613256100.937382) can0 215#FFF0FF04FFFF
(1613256100.937723) can0 2DE#0000800A00000FF0
(1613256100.937727) can0 216#4000
(1613256100.942628) can0 280#01FFC0000000FFC0
(1613256100.943999) can0 358#0102800000030000
(1613256100.944194) can0 35D#0003000000000000
(1613256100.944454) can0 60D#0800182600000000
(1613256100.947876) can0 2DE#0000800A00000FF0
(1613256100.948087) can0 355#0000FFFF200060
(1613256100.957501) can0 215#FFF0FF04FFFF
(1613256100.957694) can0 2DE#0000800A00000FF0
(1613256100.957820) can0 216#4000
(1613256100.962628) can0 280#01FFC0000000FFC0
(1613256100.967752) can0 2DE#0000800A00000FF0
(1613256100.977502) can0 215#FFF0FF04FFFF
(1613256100.977695) can0 2DE#0000800A00000FF0
(1613256100.977828) can0 216#4000
(1613256100.982623) can0 280#01FFC0000000FFC0
(1613256100.982830) can0 5C5#4000E653000C007F
(1613256100.987749) can0 2DE#0000800A00000FF0
(1613256100.987965) can0 355#0000FFFF200060
(1613256100.997501) can0 215#FFF0FF04FFFF
(1613256100.997710) can0 2DE#0000800A00000FF0
(1613256100.997714) can0 216#4000
(1613256101.002625) can0 280#01FFC0000000FFC0
(1613256101.007758) can0 2DE#0000800A00000FF0
(1613256101.017505) can0 215#FFF0FF04FFFF
(1613256101.017715) can0 2DE#0000800A00000FF0
(1613256101.017719) can0 216#4000
(1613256101.018369) can0 625#0200FF0D1000
(1613256101.022628) can0 280#01FFC0000000FFC0
(1613256101.027756) can0 2DE#0000800A00000FF0
(1613256101.027963) can0 355#0000FFFF200060
(1613256101.037500) can0 215#FFF0FF04FFFF
(1613256101.037694) can0 2DE#0000800A00000FF0
(1613256101.037818) can0 216#4000
(1613256101.042627) can0 280#01FFC0000000FFC0
(1613256101.043750) can0 358#0102800000030000
(1613256101.043945) can0 35D#0003000000000000
(1613256101.044197) can0 60D#0800182600000000
(1613256101.047874) can0 2DE#0000800A00000FF0
(1613256101.057501) can0 215#FFF0FF04FFFF
(1613256101.057710) can0 2DE#0000800A00000FF0
(1613256101.057816) can0 216#4000
(1613256101.062595) can0 280#01FFC0000000FFC0
(1613256101.067749) can0 2DE#0000800A00000FF0
(1613256101.067955) can0 355#0000FFFF200060
(1613256101.077488) can0 215#FFF0FF04FFFF
(1613256101.077702) can0 2DE#0000800A00000FF0
(1613256101.077815) can0 216#4000
(1613256101.082614) can0 280#01FFC0000000FFC0
(1613256101.082827) can0 5C5#4000E653000C007F
(1613256101.087743) can0 2DE#0000800A00000FF0
(1613256101.097490) can0 215#FFF0FF04FFFF
(1613256101.097702) can0 2DE#0000800A00000FF0
(1613256101.097815) can0 216#4000
(1613256101.102614) can0 280#01FFC0000000FFC0
(1613256101.107742) can0 2DE#0000800A00000FF0
(1613256101.107950) can0 355#0000FFFF200060
(1613256101.117451) can0 215#FFF0FF04FFFF
(1613256101.117694) can0 2DE#0000800A00000FF0
(1613256101.117826) can0 216#4000
(1613256101.118297) can0 625#0200FF0D1000
(1613256101.122612) can0 280#01FFC0000000FFC0
(1613256101.127700) can0 2DE#0000800A00000FF0
(1613256101.137621) can0 215#FFF0FF04FFFF
(1613256101.137826) can0 2DE#0000800A00000FF0
(1613256101.137830) can0 216#4000
(1613256101.142627) can0 280#01FFC0000000FFC0
(1613256101.143620) can0 358#0102800000030000
(1613256101.143839) can0 35D#0003000000000000
(1613256101.144096) can0 60D#0800182600000000
(1613256101.147875) can0 2DE#0000800A00000FF0
(1613256101.147936) can0 355#0000FFFF200060
(1613256101.157628) can0 215#FFF0FF04FFFF
(1613256101.157798) can0 2DE#0000800A00000FF0
(1613256101.157801) can0 216#4000
(1613256101.162624) can0 280#01FFC0000000FFC0
(1613256101.167753) can0 2DE#0000800A00000FF0
(1613256101.177502) can0 215#FFF0FF04FFFF
(1613256101.177675) can0 2DE#0000800A00000FF0
(1613256101.177944) can0 216#4000
(1613256101.182615) can0 280#01FFC0000000FFC0
(1613256101.182826) can0 5C5#4000E653000C007F
(1613256101.187740) can0 2DE#0000800A00000FF0
(1613256101.187811) can0 355#0000FFFF200060
(1613256101.197626) can0 215#FFF0FF04FFFF
(1613256101.197800) can0 2DE#0000800A00000FF0
(1613256101.197949) can0 216#4000
(1613256101.202629) can0 280#01FFC0000000FFC0
(1613256101.207746) can0 2DE#0000800A00000FF0
(1613256101.217630) can0 215#FFF0FF04FFFF
(1613256101.217801) can0 2DE#0000800A00000FF0
(1613256101.217950) can0 216#4000
(1613256101.218445) can0 625#0200FF0D1000
(1613256101.222626) can0 280#01FFC0000000FFC0
(1613256101.227751) can0 2DE#0000800A00000FF0
(1613256101.227914) can0 355#0000FFFF200060
(1613256101.237626) can0 215#FFF0FF04FFFF
(1613256101.237797) can0 2DE#0000800A00000FF0
(1613256101.237948) can0 216#4000
(1613256101.242621) can0 280#01FFC0000000FFC0
(1613256101.243367) can0 358#0102800000030000
(1613256101.243698) can0 35D#0003000000000000
(1613256101.243791) can0 60D#0800182600000000
(1613256101.247747) can0 2DE#0000800A00000FF0
(1613256101.257751) can0 215#FFF0FF04FFFF
(1613256101.257815) can0 2DE#0000800A00000FF0
(1613256101.257932) can0 216#4000
(1613256101.262622) can0 280#01FFC0000000FFC0
(1613256101.267749) can0 2DE#0000800A00000FF0
(1613256101.267915) can0 355#0000FFFF200060
(1613256101.277751) can0 2DE#0000800A00000FF0
(1613256101.277818) can0 215#FFF0FF04FFFF
(1613256101.278367) can0 216#4000
(1613256101.282626) can0 280#01FFC0000000FFC0
(1613256101.282826) can0 5C5#4000E653000C007F
(1613256101.287750) can0 2DE#0000800A00000FF0
(1613256101.297750) can0 215#FFF0FF04FFFF
(1613256101.297818) can0 2DE#0000800A00000FF0
(1613256101.297909) can0 216#4000
(1613256101.302614) can0 280#01FFC0000000FFC0
(1613256101.307741) can0 2DE#0000800A00000FF0
(1613256101.307813) can0 355#0000FFFF200060
(1613256101.317749) can0 2DE#0000800A00000FF0
(1613256101.317816) can0 215#FFF0FF04FFFF
(1613256101.318489) can0 216#4000
(1613256101.318823) can0 625#0200FF0D1000
(1613256101.322623) can0 280#01FFC0000000FFC0
(1613256101.327746) can0 2DE#0000800A00000FF0
(1613256101.337749) can0 2DE#0000800A00000FF0
(1613256101.337815) can0 215#FFF0FF04FFFF
(1613256101.338354) can0 216#4000
(1613256101.342616) can0 280#01FFC0000000FFC0
(1613256101.343227) can0 358#0102800000030000
(1613256101.343466) can0 35D#0003000000000000
(1613256101.343703) can0 60D#0800182600000000
(1613256101.347867) can0 2DE#0000800A00000FF0
(1613256101.347954) can0 355#0000FFFF200060
(1613256101.357749) can0 2DE#0000800A00000FF0
(1613256101.357813) can0 215#FFF0FF04FFFF
(1613256101.358366) can0 216#4000
(1613256101.362623) can0 280#01FFC0000000FFC0
(1613256101.367748) can0 2DE#0000800A00000FF0
(1613256101.377750) can0 2DE#0000800A00000FF0
(1613256101.377818) can0 215#FFF0FF04FFFF
(1613256101.378355) can0 216#4000
(1613256101.382614) can0 280#01FFC0000000FFC0
(1613256101.382835) can0 5C5#4000E653000C007F
(1613256101.387735) can0 2DE#0000800A00000FF0
(1613256101.387807) can0 355#0000FFFF200060
(1613256101.397750) can0 2DE#0000800A00000FF0
(1613256101.397816) can0 215#FFF0FF04FFFF
(1613256101.398490) can0 216#4000
(1613256101.402625) can0 280#01FFC0000000FFC0
(1613256101.407749) can0 2DE#0000800A00000FF0
(1613256101.417749) can0 2DE#0000800A00000FF0
(1613256101.417755) can0 215#FFF0FF04FFFF
(1613256101.418196) can0 216#4000
(1613256101.418710) can0 625#0200FF0D1000
(1613256101.422613) can0 280#01FFC0000000FFC0
(1613256101.427738) can0 2DE#0000800A00000FF0
(1613256101.427810) can0 355#0000FFFF200060
(1613256101.437749) can0 2DE#0000800A00000FF0
(1613256101.437817) can0 215#FFF0FF04FFFF
(1613256101.438490) can0 216#4000
(1613256101.442624) can0 280#01FFC0000000FFC0
(1613256101.443115) can0 358#0102800000030000
(1613256101.443337) can0 35D#0003000000000000
(1613256101.443407) can0 60D#0800182600000000
(1613256101.447749) can0 2DE#0000800A00000FF0
(1613256101.457747) can0 2DE#0000800A00000FF0
(1613256101.457811) can0 215#FFF0FF04FFFF
(1613256101.458195) can0 216#4000
(1613256101.462492) can0 280#01FFC0000000FFC0
(1613256101.467738) can0 2DE#0000800A00000FF0
(1613256101.467809) can0 355#0000FFFF200060
(1613256101.477750) can0 2DE#0000800A00000FF0
(1613256101.477755) can0 215#FFF0FF04FFFF
(1613256101.478195) can0 216#4000
(1613256101.482609) can0 280#01FFC0000000FFC0
(1613256101.482825) can0 5C5#4000E653000C007F
(1613256101.487734) can0 2DE#0000800A00000FF0
(1613256101.497747) can0 2DE#0000800A00000FF0
(1613256101.497815) can0 215#FFF0FF04FFFF
(1613256101.498194) can0 216#4000
(1613256101.502618) can0 280#01FFC0000000FFC0
(1613256101.507745) can0 2DE#0000800A00000FF0
(1613256101.507812) can0 355#0000FFFF200060
(1613256101.517740) can0 2DE#0000800A00000FF0
(1613256101.517746) can0 215#FFF0FF04FFFF
(1613256101.518239) can0 216#4000
(1613256101.518740) can0 625#0200FF0D1000
(1613256101.522499) can0 280#01FFC0000000FFC0
(1613256101.527748) can0 2DE#0000800A00000FF0
(1613256101.537744) can0 2DE#0000800A00000FF0
(1613256101.537812) can0 215#FFF0FF04FFFF
(1613256101.538197) can0 216#4000
(1613256101.542610) can0 280#01FFC0000000FFC0
(1613256101.542831) can0 358#0102800000030000
(1613256101.543069) can0 35D#0003000000000000
(1613256101.543320) can0 60D#0800182600000000
(1613256101.547733) can0 2DE#0000800A00000FF0
(1613256101.547914) can0 355#0000FFFF200060
(1613256101.557748) can0 2DE#0000800A00000FF0
(1613256101.557753) can0 215#FFF0FF04FFFF
(1613256101.558187) can0 216#4000
(1613256101.562499) can0 280#01FFC0000000FFC0
(1613256101.567747) can0 2DE#0000800A00000FF0
(1613256101.577748) can0 2DE#0000800A00000FF0
(1613256101.577753) can0 215#FFF0FF04FFFF
(1613256101.578202) can0 216#4000
(1613256101.582483) can0 280#01FFC0000000FFC0
(1613256101.582694) can0 5C5#4000E653000C007F
(1613256101.582959) can0 35D#0003000010000000
(1613256101.587734) can0 2DE#0000800A00000FF0
(1613256101.587917) can0 355#0000FFFF200060
(1613256101.597747) can0 2DE#0000800A00000FF0
(1613256101.597753) can0 215#FFF0FF04FFFF
(1613256101.598201) can0 216#4000
(1613256101.602625) can0 280#01FFC0000000FFC0
(1613256101.607748) can0 2DE#0000800A00000FF0
(1613256101.617748) can0 2DE#0000800A00000FF0
(1613256101.617753) can0 215#FFF0FF04FFFF
(1613256101.618195) can0 216#4000
(1613256101.618691) can0 625#0200FF0D1000
(1613256101.622487) can0 280#01FFC0000000FFC0
(1613256101.627740) can0 2DE#0000800A00000FF0
(1613256101.627811) can0 355#0000FFFF200060
(1613256101.637749) can0 2DE#0000800A00000FF0
(1613256101.637817) can0 215#FFF0FF04FFFF
(1613256101.638196) can0 216#4000
(1613256101.642496) can0 280#01FFC0000000FFC0
(1613256101.642697) can0 358#0102800000030000
(1613256101.642951) can0 60D#0800182600000000
(1613256101.647742) can0 2DE#0000800A00000FF0
(1613256101.657749) can0 2DE#0000800A00000FF0
(1613256101.657754) can0 215#FFF0FF04FFFF
(1613256101.658222) can0 216#4000
(1613256101.662489) can0 280#01FFC0000000FFC0
(1613256101.667738) can0 2DE#0000800A00000FF0
(1613256101.667809) can0 355#0000FFFF200060
(1613256101.677748) can0 2DE#0000800A00000FF0
(1613256101.677924) can0 215#FFF0FF04FFFF
(1613256101.678208) can0 216#4000
(1613256101.682486) can0 280#01FFC0000000FFC0
(1613256101.682659) can0 35D#0003000010000000
(1613256101.682944) can0 5C5#4000E653000C007F
(1613256101.687738) can0 2DE#0000800A00000FF0
(1613256101.697748) can0 2DE#0000800A00000FF0
(1613256101.697916) can0 215#FFF0FF04FFFF
(1613256101.698201) can0 216#4000
(1613256101.702496) can0 280#01FFC0000000FFC0
(1613256101.707743) can0 2DE#0000800A00000FF0
(1613256101.707804) can0 355#0000FFFF200060
(1613256101.717747) can0 2DE#0000800A00000FF0
(1613256101.717915) can0 215#FFF0FF04FFFF
(1613256101.718193) can0 216#4000
(1613256101.718691) can0 625#0200FF0D1000
(1613256101.722456) can0 280#01FFC0000000FFC0
(1613256101.727710) can0 2DE#0000800A00000FF0
(1613256101.737746) can0 2DE#0000800A00000FF0
(1613256101.737941) can0 215#FFF0FF04FFFF
(1613256101.738364) can0 216#4000
(1613256101.742497) can0 358#0102800000030000
(1613256101.742711) can0 280#01FFC0000000FFC0
(1613256101.742943) can0 60D#0800182600000000
(1613256101.747745) can0 2DE#0000800A00000FF0
(1613256101.747911) can0 355#0000FFFF200060
(1613256101.757746) can0 2DE#0000800A00000FF0
(1613256101.757907) can0 215#FFF0FF04FFFF
(1613256101.758363) can0 216#4000
(1613256101.762496) can0 280#01FFC0000000FFC0
(1613256101.767747) can0 2DE#0000800A00000FF0
(1613256101.777745) can0 2DE#0000800A00000FF0
(1613256101.777912) can0 215#FFF0FF04FFFF
(1613256101.778348) can0 216#4000
(1613256101.782486) can0 35D#0003000010000000
(1613256101.782689) can0 280#01FFC0000000FFC0
(1613256101.782981) can0 5C5#4000E653000C007F
(1613256101.787732) can0 2DE#0000800A00000FF0
(1613256101.787920) can0 355#0000FFFF200060
(1613256101.797748) can0 2DE#0000800A00000FF0
(1613256101.797909) can0 215#FFF0FF04FFFF
(1613256101.798365) can0 216#4000
(1613256101.802495) can0 280#01FFC0000000FFC0
(1613256101.807744) can0 2DE#0000800A00000FF0
(1613256101.817744) can0 2DE#0000800A00000FF0
(1613256101.817915) can0 215#FFF0FF04FFFF
(1613256101.818354) can0 216#4000
(1613256101.818855) can0 625#0200FF0D1000
(1613256101.822485) can0 280#01FFC0000000FFC0
(1613256101.827732) can0 2DE#0000800A00000FF0
(1613256101.827820) can0 355#0000FFFF200060
(1613256101.837746) can0 2DE#0000800A00000FF0
(1613256101.837915) can0 215#FFF0FF04FFFF
(1613256101.838351) can0 216#4000
(1613256101.842360) can0 358#0102800000030000
(1613256101.842581) can0 280#01FFC0000000FFC0
(1613256101.842838) can0 60D#0800182600000000
(1613256101.847732) can0 2DE#0000800A00000FF0
(1613256101.857746) can0 2DE#0000800A00000FF0
(1613256101.858089) can0 215#FFF0FF04FFFF
(1613256101.858355) can0 216#4000
(1613256101.862486) can0 280#01FFC0000000FFC0
(1613256101.867736) can0 2DE#0000800A00000FF0
(1613256101.867742) can0 355#0000FFFF200060
(1613256101.877746) can0 2DE#0000800A00000FF0
(1613256101.878087) can0 215#FFF0FF04FFFF
(1613256101.878317) can0 216#4000
(1613256101.882235) can0 35D#0003000010000000
(1613256101.882455) can0 280#01FFC0000000FFC0
(1613256101.882692) can0 5C5#4000E653000C007F
(1613256101.887731) can0 2DE#0000800A00000FF0
(1613256101.897748) can0 2DE#0000800A00000FF0
(1613256101.898105) can0 215#FFF0FF04FFFF
(1613256101.898320) can0 216#4000
(1613256101.902484) can0 280#01FFC0000000FFC0
(1613256101.907733) can0 2DE#0000800A00000FF0
(1613256101.907822) can0 355#0000FFFF200060
(1613256101.917748) can0 2DE#0000800A00000FF0
(1613256101.918064) can0 215#FFF0FF04FFFF
(1613256101.918441) can0 216#4000
(1613256101.918835) can0 625#0200FF0D1000
(1613256101.922490) can0 280#01FFC0000000FFC0
(1613256101.927744) can0 2DE#0000800A00000FF0
(1613256101.937745) can0 2DE#0000800A00000FF0
(1613256101.938099) can0 215#FFF0FF04FFFF
(1613256101.938443) can0 216#4000
(1613256101.942112) can0 358#0102800000030000
(1613256101.942313) can0 60D#0800182600000000
(1613256101.942730) can0 280#01FFC0000000FFC0
(1613256101.947735) can0 2DE#0000800A00000FF0
(1613256101.947915) can0 355#0000FFFF200060
(1613256101.957746) can0 2DE#0000800A00000FF0
(1613256101.958089) can0 215#FFF0FF04FFFF
(1613256101.958441) can0 216#4000
(1613256101.962494) can0 280#01FFC0000000FFC0
(1613256101.967745) can0 2DE#0000800A00000FF0
(1613256101.977744) can0 2DE#0000800A00000FF0
(1613256101.978071) can0 215#FFF0FF04FFFF
(1613256101.978442) can0 216#4000
(1613256101.982108) can0 35D#0003000010000000
(1613256101.982439) can0 280#01FFC0000000FFC0
(1613256101.982685) can0 5C5#4000E653000C007F
(1613256101.987731) can0 2DE#0000800A00000FF0
(1613256101.987819) can0 355#0000FFFF200060
(1613256101.997742) can0 2DE#0000800A00000FF0
(1613256101.998061) can0 215#FFF0FF04FFFF
(1613256101.998441) can0 216#4000
(1613256102.002484) can0 280#01FFC0000000FFC0
(1613256102.007737) can0 2DE#0000800A00000FF0
(1613256102.017621) can0 2DE#0000800A00000FF0
(1613256102.018085) can0 215#FFF0FF04FFFF
(1613256102.018439) can0 216#4000
(1613256102.018942) can0 625#0200FF0D1000
(1613256102.022480) can0 280#01FFC0000000FFC0
(1613256102.027734) can0 2DE#0000800A00000FF0
(1613256102.027740) can0 355#0000FFFF200060
(1613256102.037744) can0 2DE#0000800A00000FF0
(1613256102.038085) can0 215#FFF0FF04FFFF
(1613256102.038475) can0 216#4000
(1613256102.041984) can0 358#0102800000030000
(1613256102.042188) can0 60D#0800182600000000
(1613256102.042439) can0 280#01FFC0000000FFC0
(1613256102.047730) can0 2DE#0000800A00000FF0
(1613256102.057743) can0 2DE#0000800A00000FF0
(1613256102.058194) can0 215#FFF0FF04FFFF
(1613256102.058442) can0 216#4000
(1613256102.062484) can0 280#01FFC0000000FFC0
(1613256102.067734) can0 2DE#0000800A00000FF0
(1613256102.067740) can0 355#0000FFFF200060
(1613256102.077745) can0 2DE#0000800A00000FF0
(1613256102.078083) can0 215#FFF0FF04FFFF
(1613256102.078457) can0 216#4000
(1613256102.081983) can0 35D#0003000010000000
(1613256102.082452) can0 280#01FFC0000000FFC0
(1613256102.082723) can0 5C5#4000E653000C007F
(1613256102.087734) can0 2DE#0000800A00000FF0
(1613256102.097745) can0 2DE#0000800A00000FF0
(1613256102.098191) can0 215#FFF0FF04FFFF
(1613256102.098562) can0 216#4000
(1613256102.102482) can0 280#01FFC0000000FFC0
(1613256102.107729) can0 2DE#0000800A00000FF0
(1613256102.107735) can0 355#0000FFFF200060
(1613256102.117618) can0 2DE#0000800A00000FF0
(1613256102.118224) can0 215#FFF0FF04FFFF
(1613256102.118565) can0 216#4000
(1613256102.119062) can0 625#0200FF0D1000
(1613256102.122483) can0 280#01FFC0000000FFC0
(1613256102.127730) can0 2DE#0000800A00000FF0
(1613256102.137742) can0 2DE#0000800A00000FF0
(1613256102.138192) can0 215#FFF0FF04FFFF
(1613256102.138563) can0 216#4000
(1613256102.141732) can0 358#0102800000030000
(1613256102.141953) can0 60D#0800182600000000
(1613256102.142451) can0 280#01FFC0000000FFC0
(1613256102.147728) can0 2DE#0000800A00000FF0
(1613256102.147935) can0 355#0000FFFF200060
(1613256102.157740) can0 2DE#0000800A00000FF0
(1613256102.158224) can0 215#FFF0FF04FFFF
(1613256102.158562) can0 216#4000
(1613256102.162496) can0 280#01FFC0000000FFC0
(1613256102.167617) can0 2DE#0000800A00000FF0
(1613256102.177618) can0 2DE#0000800A00000FF0
(1613256102.178225) can0 215#FFF0FF04FFFF
(1613256102.178564) can0 216#4000
(1613256102.181732) can0 35D#0003000010000000
(1613256102.182478) can0 280#01FFC0000000FFC0
(1613256102.182701) can0 5C5#4000E653000C007F
(1613256102.187733) can0 2DE#0000800A00000FF0
(1613256102.187738) can0 355#0000FFFF200060
(1613256102.197618) can0 2DE#0000800A00000FF0
(1613256102.198225) can0 215#FFF0FF04FFFF
(1613256102.198565) can0 216#4000
(1613256102.202483) can0 280#01FFC0000000FFC0
(1613256102.207611) can0 2DE#0000800A00000FF0
(1613256102.217619) can0 2DE#0000800A00000FF0
(1613256102.218221) can0 215#FFF0FF04FFFF
(1613256102.218723) can0 216#4000
(1613256102.219102) can0 625#0200FF0D1000
(1613256102.222479) can0 280#01FFC0000000FFC0
(1613256102.227734) can0 2DE#0000800A00000FF0
(1613256102.227740) can0 355#0000FFFF200060
(1613256102.237619) can0 2DE#0000800A00000FF0
(1613256102.238348) can0 215#FFF0FF04FFFF
(1613256102.238690) can0 216#4000
(1613256102.241608) can0 358#0102800000030000
(1613256102.241824) can0 60D#0800182600000000
(1613256102.242455) can0 280#01FFC0000000FFC0
(1613256102.247733) can0 2DE#0000800A00000FF0
(1613256102.257619) can0 2DE#0000800A00000FF0
(1613256102.258223) can0 215#FFF0FF04FFFF
(1613256102.258726) can0 216#4000
(1613256102.262479) can0 280#01FFC0000000FFC0
(1613256102.267733) can0 2DE#0000800A00000FF0
(1613256102.267749) can0 355#0000FFFF200060
(1613256102.277744) can0 2DE#0000800A00000FF0
(1613256102.278348) can0 215#FFF0FF04FFFF
(1613256102.278726) can0 216#4000
(1613256102.281606) can0 35D#0003000010000000
(1613256102.282474) can0 280#01FFC0000000FFC0
(1613256102.282693) can0 5C5#4000E653000C007F
(1613256102.287608) can0 2DE#0000800A00000FF0
(1613256102.297616) can0 2DE#0000800A00000FF0
(1613256102.298349) can0 215#FFF0FF04FFFF
(1613256102.298687) can0 216#4000
(1613256102.302478) can0 280#01FFC0000000FFC0
(1613256102.307733) can0 2DE#0000800A00000FF0
(1613256102.307739) can0 355#0000FFFF200060
(1613256102.317616) can0 2DE#0000800A00000FF0
(1613256102.318347) can0 215#FFF0FF04FFFF
(1613256102.318687) can0 216#4000
(1613256102.319185) can0 625#0200FF0D1000
(1613256102.322437) can0 280#01FFC0000000FFC0
(1613256102.327601) can0 2DE#0000800A00000FF0
(1613256102.337607) can0 2DE#0000800A00000FF0
(1613256102.338475) can0 215#FFF0FF04FFFF
(1613256102.338690) can0 216#4000
(1613256102.341482) can0 358#0102800000030000
(1613256102.341704) can0 60D#0800182600000000
(1613256102.342598) can0 280#01FFC0000000FFC0
(1613256102.347604) can0 2DE#0000800A00000FF0
(1613256102.347788) can0 355#0000FFFF200060
(1613256102.357620) can0 2DE#0000800A00000FF0
(1613256102.358484) can0 215#FFF0FF04FFFF
(1613256102.358705) can0 216#4000
(1613256102.362494) can0 280#01FFC0000000FFC0
(1613256102.367616) can0 2DE#0000800A00000FF0
(1613256102.377617) can0 2DE#0000800A00000FF0
(1613256102.378347) can0 215#FFF0FF04FFFF
(1613256102.378705) can0 216#4000
(1613256102.381353) can0 35D#0003000010000000
(1613256102.382478) can0 280#01FFC0000000FFC0
(1613256102.382691) can0 5C5#4000E653000C007F
(1613256102.387606) can0 2DE#0000800A00000FF0
(1613256102.387792) can0 355#0000FFFF200060
(1613256102.397617) can0 2DE#0000800A00000FF0
(1613256102.398484) can0 215#FFF0FF04FFFF
(1613256102.398701) can0 216#4000
(1613256102.402490) can0 280#01FFC0000000FFC0
(1613256102.407614) can0 2DE#0000800A00000FF0
(1613256102.417618) can0 2DE#0000800A00000FF0
(1613256102.418468) can0 215#FFF0FF04FFFF
(1613256102.418812) can0 216#4000
(1613256102.419186) can0 625#0200FF0D1000
(1613256102.422482) can0 280#01FFC0000000FFC0
(1613256102.427731) can0 2DE#0000800A00000FF0
(1613256102.427737) can0 355#0000FFFF200060
(1613256102.437615) can0 2DE#0000800A00000FF0
(1613256102.438472) can0 215#FFF0FF04FFFF
(1613256102.438813) can0 216#4000
(1613256102.441231) can0 358#0102800000030000
(1613256102.441452) can0 60D#0800182600000000
(1613256102.442601) can0 280#01FFC0000000FFC0
(1613256102.447602) can0 2DE#0000800A00000FF0
(1613256102.457616) can0 2DE#0000800A00000FF0
(1613256102.458472) can0 215#FFF0FF04FFFF
(1613256102.458811) can0 216#4000
(1613256102.462481) can0 280#01FFC0000000FFC0
(1613256102.467604) can0 2DE#0000800A00000FF0
(1613256102.467788) can0 355#0000FFFF200060
(1613256102.477616) can0 2DE#0000800A00000FF0
(1613256102.478484) can0 215#FFF0FF04FFFF
(1613256102.478813) can0 216#4000
(1613256102.481238) can0 35D#0003000010000000
(1613256102.482491) can0 280#01FFC0000000FFC0
(1613256102.482694) can0 5C5#4000E653000C007F
(1613256102.487615) can0 2DE#0000800A00000FF0
(1613256102.497615) can0 2DE#0000800A00000FF0
(1613256102.498472) can0 215#FFF0FF04FFFF
(1613256102.498809) can0 216#4000
(1613256102.502476) can0 280#01FFC0000000FFC0
(1613256102.507605) can0 2DE#0000800A00000FF0
(1613256102.507786) can0 355#0000FFFF200060
(1613256102.517615) can0 2DE#0000800A00000FF0
(1613256102.518486) can0 215#FFF0FF04FFFF
(1613256102.518812) can0 216#4000
(1613256102.519199) can0 625#0200FF0D1000
(1613256102.522486) can0 280#01FFC0000000FFC0
(1613256102.527616) can0 2DE#0000800A00000FF0
(1613256102.537527) can0 2DE#0000800A00000FF0
(1613256102.538562) can0 215#FFF0FF04FFFF
(1613256102.538805) can0 216#4000
(1613256102.541100) can0 358#0102800000030000
(1613256102.541306) can0 60D#0800182600000000
(1613256102.542604) can0 280#01FFC0000000FFC0
(1613256102.547604) can0 2DE#0000800A00000FF0
(1613256102.547807) can0 355#0000FFFF200060
(1613256102.557604) can0 2DE#0000800A00000FF0
(1613256102.558598) can0 215#FFF0FF04FFFF
(1613256102.558809) can0 216#4000
(1613256102.562484) can0 280#01FFC0000000FFC0
(1613256102.567604) can0 2DE#0000800A00000FF0
(1613256102.577604) can0 2DE#0000800A00000FF0
(1613256102.578599) can0 215#FFF0FF04FFFF
(1613256102.578806) can0 216#4000
(1613256102.580982) can0 35D#0003000010000000
(1613256102.582476) can0 280#01FFC0000000FFC0
(1613256102.582679) can0 5C5#4000E653000C007F
(1613256102.587605) can0 2DE#0000800A00000FF0
(1613256102.587814) can0 355#0000FFFF200060
(1613256102.597602) can0 2DE#0000800A00000FF0
(1613256102.598600) can0 215#FFF0FF04FFFF
(1613256102.598805) can0 216#4000
(1613256102.602476) can0 280#01FFC0000000FFC0
(1613256102.607601) can0 2DE#0000800A00000FF0
(1613256102.617605) can0 2DE#0000800A00000FF0
(1613256102.618599) can0 215#FFF0FF04FFFF
(1613256102.618961) can0 216#4000
(1613256102.619433) can0 625#0200FF0D1000
(1613256102.622476) can0 280#01FFC0000000FFC0
(1613256102.627605) can0 2DE#0000800A00000FF0
(1613256102.627805) can0 355#0000FFFF200060
(1613256102.637601) can0 2DE#0000800A00000FF0
(1613256102.638724) can0 215#FFF0FF04FFFF
(1613256102.638940) can0 216#4000
(1613256102.640857) can0 358#0102800000030000
(1613256102.641065) can0 60D#0800182600000000
(1613256102.642478) can0 280#01FFC0000000FFC0
(1613256102.647599) can0 2DE#0000800A00000FF0
(1613256102.657605) can0 2DE#0000800A00000FF0
(1613256102.658724) can0 215#FFF0FF04FFFF
(1613256102.658929) can0 216#4000
(1613256102.662480) can0 280#01FFC0000000FFC0
(1613256102.667603) can0 2DE#0000800A00000FF0
(1613256102.667784) can0 355#0000FFFF200060
(1613256102.677604) can0 2DE#0000800A00000FF0
(1613256102.678599) can0 215#FFF0FF04FFFF
(1613256102.678935) can0 216#4000
(1613256102.680854) can0 35D#0003000010000000
(1613256102.682477) can0 280#01FFC0000000FFC0
(1613256102.682680) can0 5C5#4000E653000C007F
(1613256102.687600) can0 2DE#0000800A00000FF0
(1613256102.697602) can0 2DE#0000800A00000FF0
(1613256102.698725) can0 215#FFF0FF04FFFF
(1613256102.698927) can0 216#4000
(1613256102.702480) can0 280#01FFC0000000FFC0
(1613256102.707603) can0 2DE#0000800A00000FF0
(1613256102.707804) can0 355#0000FFFF200060
(1613256102.717604) can0 2DE#0000800A00000FF0
(1613256102.718723) can0 215#FFF0FF04FFFF
(1613256102.718939) can0 216#4000
(1613256102.719305) can0 625#0200FF0D1000
(1613256102.722476) can0 280#01FFC0000000FFC0
(1613256102.727603) can0 2DE#0000800A00000FF0
(1613256102.737605) can0 2DE#0000800A00000FF0
(1613256102.738724) can0 215#FFF0FF04FFFF
(1613256102.738938) can0 216#4000
(1613256102.740731) can0 358#0102800000030000
(1613256102.740940) can0 60D#0800182600000000
(1613256102.742477) can0 280#01FFC0000000FFC0
(1613256102.747602) can0 2DE#0000800A00000FF0
(1613256102.747813) can0 355#0000FFFF200060
(1613256102.757603) can0 2DE#0000800A00000FF0
(1613256102.758722) can0 215#FFF0FF04FFFF
(1613256102.758941) can0 216#4000
(1613256102.762480) can0 280#01FFC0000000FFC0
(1613256102.767603) can0 2DE#0000800A00000FF0
(1613256102.777604) can0 2DE#0000800A00000FF0
(1613256102.778723) can0 215#FFF0FF04FFFF
(1613256102.779084) can0 216#4000
(1613256102.780728) can0 35D#0003000010000000
(1613256102.782475) can0 280#01FFC0000000FFC0
(1613256102.782688) can0 5C5#4000E653000C007F
(1613256102.787598) can0 2DE#0000800A00000FF0
(1613256102.787812) can0 355#0000FFFF200060
(1613256102.797603) can0 2DE#0000800A00000FF0
(1613256102.798724) can0 215#FFF0FF04FFFF
(1613256102.799084) can0 216#4000
(1613256102.802478) can0 280#01FFC0000000FFC0
(1613256102.807602) can0 2DE#0000800A00000FF0
(1613256102.817606) can0 2DE#0000800A00000FF0
(1613256102.818723) can0 215#FFF0FF04FFFF
(1613256102.819059) can0 216#4000
(1613256102.819434) can0 625#0200FF0D1000
(1613256102.822475) can0 280#01FFC0000000FFC0
(1613256102.827597) can0 2DE#0000800A00000FF0
(1613256102.827812) can0 355#0000FFFF200060
(1613256102.837602) can0 2DE#0000800A00000FF0
(1613256102.838723) can0 215#FFF0FF04FFFF
(1613256102.839059) can0 216#4000
(1613256102.840477) can0 358#0102800000030000
(1613256102.840689) can0 60D#0800182600000000
(1613256102.842470) can0 280#01FFC0000000FFC0
(1613256102.847601) can0 2DE#0000800A00000FF0
(1613256102.857602) can0 2DE#0000800A00000FF0
(1613256102.858725) can0 215#FFF0FF04FFFF
(1613256102.859059) can0 216#4000
(1613256102.862480) can0 280#01FFC0000000FFC0
(1613256102.867603) can0 2DE#0000800A00000FF0
(1613256102.867812) can0 355#0000FFFF200060
(1613256102.877602) can0 2DE#0000800A00000FF0
(1613256102.878726) can0 215#FFF0FF04FFFF
(1613256102.879060) can0 216#4000
(1613256102.880475) can0 35D#0003000010000000
(1613256102.882475) can0 280#01FFC0000000FFC0
(1613256102.882679) can0 5C5#4000E653000C007F
(1613256102.887601) can0 2DE#0000800A00000FF0
(1613256102.897602) can0 2DE#0000800A00000FF0
(1613256102.898850) can0 215#FFF0FF04FFFF
(1613256102.899063) can0 216#4000
(1613256102.902477) can0 280#01FFC0000000FFC0
(1613256102.907602) can0 2DE#0000800A00000FF0
(1613256102.907813) can0 355#0000FFFF200060
(1613256102.917604) can0 2DE#0000800A00000FF0
(1613256102.918723) can0 215#FFF0FF04FFFF
(1613256102.919074) can0 216#4000
(1613256102.919723) can0 625#0200FF0D1000
(1613256102.922440) can0 280#01FFC0000000FFC0
(1613256102.927598) can0 2DE#0000800A00000FF0
(1613256102.937610) can0 2DE#0000800A00000FF0
(1613256102.938858) can0 215#FFF0FF04FFFF
(1613256102.939049) can0 216#4000
(1613256102.940316) can0 358#0102800000030000
(1613256102.940562) can0 60D#0800182600000000
(1613256102.942473) can0 280#01FFC0000000FFC0
(1613256102.947611) can0 2DE#0000800A00000FF0
(1613256102.947803) can0 355#0000FFFF200060
(1613256102.957610) can0 2DE#0000800A00000FF0
(1613256102.958859) can0 215#FFF0FF04FFFF
(1613256102.959206) can0 216#4000
(1613256102.962472) can0 280#01FFC0000000FFC0
(1613256102.967610) can0 2DE#0000800A00000FF0
(1613256102.977612) can0 2DE#0000800A00000FF0
(1613256102.978849) can0 215#FFF0FF04FFFF
(1613256102.979207) can0 216#4000
(1613256102.980233) can0 35D#0003000010000000
(1613256102.982473) can0 280#01FFC0000000FFC0
(1613256102.982677) can0 5C5#4000E653000C007F
(1613256102.987599) can0 2DE#0000800A00000FF0
(1613256102.987803) can0 355#0000FFFF200060
(1613256102.997610) can0 2DE#0000800A00000FF0
(1613256102.998857) can0 215#FFF0FF04FFFF
(1613256102.999183) can0 216#4000
(1613256103.002486) can0 280#01FFC0000000FFC0
(1613256103.007610) can0 2DE#0000800A00000FF0
(1613256103.017610) can0 2DE#0000800A00000FF0
(1613256103.018848) can0 215#FFF0FF04FFFF
(1613256103.019181) can0 216#4000
(1613256103.019556) can0 625#0200FF0D1000
(1613256103.022485) can0 280#01FFC0000000FFC0
(1613256103.027610) can0 2DE#0000800A00000FF0
(1613256103.027805) can0 355#0000FFFF200060
(1613256103.037609) can0 2DE#0000800A00000FF0
(1613256103.038847) can0 215#FFF0FF04FFFF
(1613256103.039182) can0 216#4000
(1613256103.040102) can0 358#0102800000030000
(1613256103.040310) can0 60D#0800182600000000
(1613256103.042472) can0 280#01FFC0000000FFC0
(1613256103.047597) can0 2DE#0000800A00000FF0
(1613256103.057610) can0 2DE#0000800A00000FF0
(1613256103.058972) can0 215#FFF0FF04FFFF
(1613256103.059177) can0 216#4000
(1613256103.062474) can0 280#01FFC0000000FFC0
(1613256103.067611) can0 2DE#0000800A00000FF0
(1613256103.067799) can0 355#0000FFFF200060
(1613256103.077613) can0 2DE#0000800A00000FF0
(1613256103.078974) can0 215#FFF0FF04FFFF
(1613256103.079171) can0 216#4000
(1613256103.080057) can0 35D#0003000010000000
(1613256103.082472) can0 280#01FFC0000000FFC0
(1613256103.082704) can0 5C5#4000E653000C007F
(1613256103.087606) can0 2DE#0000800A00000FF0
(1613256103.097609) can0 2DE#0000800A00000FF0
(1613256103.098845) can0 215#FFF0FF04FFFF
(1613256103.099197) can0 216#4000
(1613256103.102485) can0 280#01FFC0000000FFC0
(1613256103.107609) can0 2DE#0000800A00000FF0
(1613256103.107803) can0 355#0000FFFF200060
(1613256103.117613) can0 2DE#0000800A00000FF0
(1613256103.118971) can0 215#FFF0FF04FFFF
(1613256103.119178) can0 216#4000
(1613256103.119716) can0 625#0200FF0D1000
(1613256103.122487) can0 280#01FFC0000000FFC0
(1613256103.127612) can0 2DE#0000800A00000FF0
(1613256103.137612) can0 2DE#0000800A00000FF0
(1613256103.138982) can0 215#FFF0FF04FFFF
(1613256103.139177) can0 216#4000
(1613256103.139972) can0 358#0102800000030000
(1613256103.140171) can0 60D#0800182600000000
(1613256103.142473) can0 280#01FFC0000000FFC0
(1613256103.147613) can0 2DE#0000800A00000FF0
(1613256103.147811) can0 355#0000FFFF200060
(1613256103.157610) can0 2DE#0000800A00000FF0
(1613256103.158971) can0 215#FFF0FF04FFFF
(1613256103.159330) can0 216#4000
(1613256103.162470) can0 280#01FFC0000000FFC0
(1613256103.167612) can0 2DE#0000800A00000FF0
(1613256103.177610) can0 2DE#0000800A00000FF0
(1613256103.178970) can0 215#FFF0FF04FFFF
(1613256103.179308) can0 216#4000
(1613256103.179963) can0 35D#0003000010000000
(1613256103.182471) can0 280#01FFC0000000FFC0
(1613256103.182676) can0 5C5#4000E653000C007F
(1613256103.187597) can0 2DE#0000800A00000FF0
(1613256103.187642) can0 355#0000FFFF200060
(1613256103.197599) can0 2DE#0000800A00000FF0
(1613256103.198971) can0 215#FFF0FF04FFFF
(1613256103.199305) can0 216#4000
(1613256103.202473) can0 280#01FFC0000000FFC0
(1613256103.207599) can0 2DE#0000800A00000FF0
(1613256103.217599) can0 2DE#0000800A00000FF0
(1613256103.218973) can0 215#FFF0FF04FFFF
(1613256103.219304) can0 216#4000
(1613256103.219805) can0 625#0200FF0D1000
(1613256103.222474) can0 280#01FFC0000000FFC0
(1613256103.227600) can0 2DE#0000800A00000FF0
(1613256103.227813) can0 355#0000FFFF200060
(1613256103.237600) can0 2DE#0000800A00000FF0
(1613256103.238973) can0 215#FFF0FF04FFFF
(1613256103.239304) can0 216#4000
(1613256103.239689) can0 358#0102800000030000
(1613256103.240057) can0 60D#0800182600000000
(1613256103.242469) can0 280#01FFC0000000FFC0
(1613256103.247599) can0 2DE#0000800A00000FF0
(1613256103.257601) can0 2DE#0000800A00000FF0
(1613256103.259096) can0 215#FFF0FF04FFFF
(1613256103.259311) can0 216#4000
(1613256103.262470) can0 280#01FFC0000000FFC0
(1613256103.267602) can0 2DE#0000800A00000FF0
(1613256103.267811) can0 355#0000FFFF200060
(1613256103.277590) can0 2DE#0000800A00000FF0
(1613256103.278975) can0 215#FFF0FF04FFFF
(1613256103.279299) can0 216#4000
(1613256103.279682) can0 35D#0003000010000000
(1613256103.282471) can0 280#01FFC0000000FFC0
(1613256103.282684) can0 5C5#4000E653000C007F
(1613256103.287601) can0 2DE#0000800A00000FF0
(1613256103.297598) can0 2DE#0000800A00000FF0
(1613256103.299096) can0 215#FFF0FF04FFFF
(1613256103.299310) can0 216#4000
(1613256103.302473) can0 280#01FFC0000000FFC0
(1613256103.307597) can0 2DE#0000800A00000FF0
(1613256103.307642) can0 355#0000FFFF200060
(1613256103.317474) can0 2DE#0000800A00000FF0
(1613256103.319098) can0 215#FFF0FF04FFFF
(1613256103.319452) can0 216#4000
(1613256103.319804) can0 625#0200FF0D1000
(1613256103.322474) can0 280#01FFC0000000FFC0
(1613256103.327601) can0 2DE#0000800A00000FF0
(1613256103.337600) can0 2DE#0000800A00000FF0
(1613256103.339095) can0 215#FFF0FF04FFFF
(1613256103.339453) can0 216#4000
(1613256103.339682) can0 358#0102800000030000
(1613256103.339963) can0 60D#0800182600000000
(1613256103.342470) can0 280#01FFC0000000FFC0
(1613256103.347596) can0 2DE#0000800A00000FF0
(1613256103.347643) can0 355#0000FFFF200060
(1613256103.357600) can0 2DE#0000800A00000FF0
(1613256103.359089) can0 215#FFF0FF04FFFF
(1613256103.359453) can0 216#4000
(1613256103.362471) can0 280#01FFC0000000FFC0
(1613256103.367476) can0 2DE#0000800A00000FF0
(1613256103.377598) can0 2DE#0000800A00000FF0
(1613256103.379096) can0 215#FFF0FF04FFFF
(1613256103.379599) can0 35D#0003000010000000
(1613256103.379606) can0 216#4000
(1613256103.382472) can0 280#01FFC0000000FFC0
(1613256103.382683) can0 5C5#4000E653000C007F
(1613256103.387594) can0 2DE#0000800A00000FF0
(1613256103.387665) can0 355#0000FFFF200060
(1613256103.397597) can0 2DE#0000800A00000FF0
(1613256103.399094) can0 215#FFF0FF04FFFF
(1613256103.399428) can0 216#4000
(1613256103.402475) can0 280#01FFC0000000FFC0
(1613256103.407598) can0 2DE#0000800A00000FF0
(1613256103.417598) can0 2DE#0000800A00000FF0
(1613256103.419222) can0 215#FFF0FF04FFFF
(1613256103.419434) can0 216#4000
(1613256103.419810) can0 625#0200FF0D1000
(1613256103.422474) can0 280#01FFC0000000FFC0
(1613256103.427599) can0 2DE#0000800A00000FF0
(1613256103.427645) can0 355#0000FFFF200060
(1613256103.429472) can0 60D#0802182600000000
(1613256103.437473) can0 2DE#0000800A00000FF0
(1613256103.439220) can0 215#FFF0FF04FFFF
(1613256103.439432) can0 358#0102800000030000
(1613256103.439436) can0 216#4000
(1613256103.442471) can0 280#01FFC0000000FFC0
(1613256103.447599) can0 2DE#0000800A00000FF0
(1613256103.457475) can0 2DE#0000800A00000FF0
(1613256103.459094) can0 215#FFF0FF04FFFF
(1613256103.459443) can0 216#4000
(1613256103.462469) can0 280#01FFC0000000FFC0
(1613256103.467596) can0 2DE#0000800A00000FF0
(1613256103.467641) can0 355#0000FFFF200060
(1613256103.477597) can0 2DE#0000800A00000FF0
(1613256103.479219) can0 215#FFF0FF04FFFF
(1613256103.479434) can0 35D#0003000010000000
(1613256103.479439) can0 216#4000
(1613256103.482468) can0 280#01FFC0000000FFC0
(1613256103.482682) can0 5C5#4000E653000C007F
(1613256103.487470) can0 2DE#0000800A00000FF0
(1613256103.497473) can0 2DE#0000800A00000FF0
(1613256103.499219) can0 215#FFF0FF04FFFF
(1613256103.499593) can0 216#4000
(1613256103.502344) can0 280#01FFC0000000FFC0
(1613256103.507597) can0 2DE#0000800A00000FF0
(1613256103.507643) can0 355#0000FFFF200060
(1613256103.517473) can0 2DE#0000800A00000FF0
(1613256103.519218) can0 215#FFF0FF04FFFF
(1613256103.519575) can0 216#4000
(1613256103.520053) can0 625#0200FF0D1000
(1613256103.522413) can0 280#01FFC0000000FFC0
(1613256103.527402) can0 2DE#0000800A00000FF0
(1613256103.529307) can0 60D#0802182600000000
(1613256103.537471) can0 2DE#0000800A00000FF0
(1613256103.539222) can0 358#0102800000030000
(1613256103.539437) can0 215#FFF0FF04FFFF
(1613256103.539680) can0 216#4000
(1613256103.542484) can0 280#01FFC0000000FFC0
(1613256103.547480) can0 2DE#0000800A00000FF0
(1613256103.547692) can0 355#0000FFFF200060
(1613256103.557482) can0 2DE#0000800A00000FF0
(1613256103.559230) can0 215#FFF0FF04FFFF
(1613256103.559552) can0 216#4000
(1613256103.562357) can0 280#01FFC0000000FFC0
(1613256103.567480) can0 2DE#0000800A00000FF0
(1613256103.577483) can0 2DE#0000800A00000FF0
(1613256103.579212) can0 35D#0003000010000000
(1613256103.579265) can0 215#FFF0FF04FFFF
(1613256103.579679) can0 216#4000
(1613256103.582470) can0 280#01FFC0000000FFC0
(1613256103.582680) can0 5C5#4000E653000C007F
(1613256103.587470) can0 2DE#0000800A00000FF0
(1613256103.587655) can0 355#0000FFFF200060
(1613256103.597483) can0 2DE#0000800A00000FF0
(1613256103.599229) can0 215#FFF0FF04FFFF
(1613256103.599553) can0 216#4000
(1613256103.602358) can0 280#01FFC0000000FFC0
(1613256103.607482) can0 2DE#0000800A00000FF0
(1613256103.617482) can0 2DE#0000800A00000FF0
(1613256103.619343) can0 215#FFF0FF04FFFF
(1613256103.619558) can0 216#4000
(1613256103.619920) can0 625#0200FF0D1000
(1613256103.622342) can0 280#01FFC0000000FFC0
(1613256103.627596) can0 2DE#0000800A00000FF0
(1613256103.627666) can0 355#0000FFFF200060
(1613256103.629100) can0 60D#0802182600000000
(1613256103.637480) can0 2DE#0000800A00000FF0
(1613256103.639102) can0 358#0102800000030000
(1613256103.639428) can0 215#FFF0FF04FFFF
(1613256103.639803) can0 216#4000
(1613256103.642484) can0 280#01FFC0000000FFC0
(1613256103.647482) can0 2DE#0000800A00000FF0
(1613256103.657483) can0 2DE#0000800A00000FF0
(1613256103.659344) can0 215#FFF0FF04FFFF
(1613256103.659677) can0 216#4000
(1613256103.662347) can0 280#01FFC0000000FFC0
(1613256103.667471) can0 2DE#0000800A00000FF0
(1613256103.667657) can0 355#0000FFFF200060
(1613256103.677481) can0 2DE#0000800A00000FF0
(1613256103.678979) can0 35D#0003000010000000
(1613256103.679596) can0 215#FFF0FF04FFFF
(1613256103.679815) can0 216#4000
(1613256103.682481) can0 280#01FFC0000000FFC0
(1613256103.682682) can0 5C5#4000E653000C007F
(1613256103.687481) can0 2DE#0000800A00000FF0
(1613256103.697480) can0 2DE#0000800A00000FF0
(1613256103.699346) can0 215#FFF0FF04FFFF
(1613256103.699676) can0 216#4000
(1613256103.702345) can0 280#01FFC0000000FFC0
(1613256103.707472) can0 2DE#0000800A00000FF0
(1613256103.707652) can0 355#0000FFFF200060
(1613256103.717481) can0 2DE#0000800A00000FF0
(1613256103.719346) can0 215#FFF0FF04FFFF
(1613256103.719677) can0 216#4000
(1613256103.720053) can0 625#0200FF0D1000
(1613256103.722351) can0 280#01FFC0000000FFC0
(1613256103.727469) can0 2DE#0000800A00000FF0
(1613256103.728979) can0 60D#0802182600000000
(1613256103.737480) can0 2DE#0000800A00000FF0
(1613256103.738851) can0 358#0102800000030000
(1613256103.739599) can0 215#FFF0FF04FFFF
(1613256103.739818) can0 216#4000
(1613256103.742479) can0 280#01FFC0000000FFC0
(1613256103.747607) can0 2DE#0000800A00000FF0
(1613256103.747675) can0 355#0000FFFF200060
(1613256103.757480) can0 2DE#0000800A00000FF0
(1613256103.759341) can0 215#FFF0FF04FFFF
(1613256103.759677) can0 216#4000
(1613256103.762345) can0 280#01FFC0000000FFC0
(1613256103.767473) can0 2DE#0000800A00000FF0
(1613256103.777480) can0 2DE#0000800A00000FF0
(1613256103.778841) can0 35D#0003000010000000
(1613256103.779716) can0 215#FFF0FF04FFFF
(1613256103.779943) can0 216#4000
(1613256103.782466) can0 280#01FFC0000000FFC0
(1613256103.782677) can0 5C5#4000E653000C007F
(1613256103.787466) can0 2DE#0000800A00000FF0
(1613256103.787641) can0 355#0000FFFF200060
(1613256103.797481) can0 2DE#0000800A00000FF0
(1613256103.799478) can0 215#FFF0FF04FFFF
(1613256103.799684) can0 216#4000
(1613256103.802356) can0 280#01FFC0000000FFC0
(1613256103.807480) can0 2DE#0000800A00000FF0
(1613256103.817480) can0 2DE#0000800A00000FF0
(1613256103.819340) can0 215#FFF0FF04FFFF
(1613256103.819679) can0 216#4000
(1613256103.820179) can0 625#0200FF0D1000
(1613256103.822342) can0 280#01FFC0000000FFC0
(1613256103.827466) can0 2DE#0000800A00000FF0
(1613256103.827648) can0 355#0000FFFF200060
(1613256103.828730) can0 60D#0802182600000000
(1613256103.837480) can0 2DE#0000800A00000FF0
(1613256103.838724) can0 358#0102800000030000
(1613256103.839729) can0 215#FFF0FF04FFFF
(1613256103.839949) can0 216#4000
(1613256103.842472) can0 280#01FFC0000000FFC0
(1613256103.847476) can0 2DE#0000800A00000FF0
(1613256103.857478) can0 2DE#0000800A00000FF0
(1613256103.859465) can0 215#FFF0FF04FFFF
(1613256103.859678) can0 216#4000
(1613256103.862345) can0 280#01FFC0000000FFC0
(1613256103.867470) can0 2DE#0000800A00000FF0
(1613256103.867650) can0 355#0000FFFF200060
(1613256103.877478) can0 2DE#0000800A00000FF0
(1613256103.878726) can0 35D#0003000010000000
(1613256103.879726) can0 215#FF30FF04FFFF
(1613256103.879890) can0 216#4040
(1613256103.880472) can0 625#0200FF1D1000
(1613256103.882974) can0 280#0102C00000009B40
(1613256103.883193) can0 5C5#4000E653000C007F
(1613256103.887853) can0 2DE#0000800A0000FFFF
(1613256103.888977) can0 358#0142800082030000
(1613256103.889190) can0 35D#C103000010000000
(1613256103.889448) can0 60D#0806180000000000
(1613256103.894604) can0 625#3200C71D1000
(1613256103.895098) can0 160#3203200008FFC0
(1613256103.895308) can0 180#0000320320000100
(1613256103.895574) can0 182#FF000000002140C8
(1613256103.895825) can0 1F9#0000000000000000
(1613256103.897854) can0 2DE#0000800A0000FFFF
(1613256103.898018) can0 002#E3FD000780C36E07
(1613256103.899477) can0 215#FF30FF04FFFF
(1613256103.899800) can0 216#4040
(1613256103.902855) can0 280#0101C00000009B40
(1613256103.905353) can0 160#3203200008FFC0
(1613256103.905569) can0 180#0000320320000200
(1613256103.905822) can0 182#FF000000002240C8
(1613256103.906068) can0 1F9#0000000000000000
(1613256103.906318) can0 245#FFE000180010FFE0
(1613256103.906567) can0 292#FFFFFFFFF0001800
(1613256103.906819) can0 354#000000002A001400
(1613256103.907015) can0 551#58000000000000FF
(1613256103.907262) can0 580#0000800000000000
(1613256103.907512) can0 6E2#0000380000040000
(1613256103.907761) can0 2DE#0000800A0000FFFF
(1613256103.907886) can0 002#E3FD000791C36E07
(1613256103.908173) can0 355#00000000200060
(1613256103.915604) can0 160#3A63CF0008FFE0
(1613256103.915770) can0 180#00003CF3A6003300
(1613256103.916024) can0 182#FF000000003340E9
(1613256103.916300) can0 1F9#0000000000000000
(1613256103.916572) can0 284#0000000000000086
(1613256103.916822) can0 285#0000000000000087
(1613256103.916827) can0 286#0000
(1613256103.917973) can0 2DE#0000800A0000FFFF
(1613256103.918027) can0 002#E3FD0007A2C36E07
(1613256103.919601) can0 215#FF30FF04FFFF
(1613256103.919785) can0 216#4040
(1613256103.920189) can0 625#3200C71D1000
(1613256103.922850) can0 280#0103C00000009940
(1613256103.925606) can0 292#FFFFFFFFF0001801
(1613256103.925776) can0 245#FFE000180010FFE1
(1613256103.926050) can0 160#3A63CF0008FFE0
(1613256103.926323) can0 180#00003CF3A6003400
(1613256103.926386) can0 182#FF000000003440E9
(1613256103.926692) can0 1F9#0000000000000000
(1613256103.927974) can0 2DE#0000800A0000FFFF
(1613256103.928173) can0 002#E3FD0007B3C36E07
(1613256103.928673) can0 385#00000000000000
(1613256103.935603) can0 285#0000000000000188
(1613256103.935768) can0 284#0000000000000187
(1613256103.935927) can0 286#0040
(1613256103.936199) can0 160#3A63BC0008FFE0
(1613256103.936449) can0 180#00003BC3A6003500
(1613256103.936697) can0 182#FF000000003540E9
(1613256103.936947) can0 1F9#0000000000000000
(1613256103.937721) can0 2DE#0000800A0000FFFF
(1613256103.937924) can0 002#E3FD0007C4C36E07
(1613256103.939476) can0 215#FF30FF04FFFF
(1613256103.939764) can0 216#4040
(1613256103.942976) can0 280#0104C00000009940
(1613256103.945604) can0 292#FFFFFFFFF0001802
(1613256103.945768) can0 245#FFE000180010FFE2
(1613256103.946050) can0 354#000000002A081400
(1613256103.946321) can0 160#3A63BA0008FFE0
(1613256103.946568) can0 180#00003BA3A6003600
(1613256103.946822) can0 182#FF000000003640E9
(1613256103.947071) can0 1F9#0000000000000000
(1613256103.947970) can0 2DE#0000800A0000FFFF
(1613256103.948197) can0 002#E3FD0007D5C36E07
(1613256103.948261) can0 355#00000000200060
(1613256103.955602) can0 285#0000000000000289
(1613256103.955799) can0 284#0000000000000288
(1613256103.955924) can0 286#0080
(1613256103.956595) can0 160#3A63B80008FFE0
(1613256103.956803) can0 180#00003B83A6003700
(1613256103.957073) can0 182#FF000000003740E9
(1613256103.957325) can0 1F9#0000000000000000
(1613256103.957672) can0 2DE#0000800A0000FFFF
(1613256103.957928) can0 002#E3FD0007E6C36E07
(1613256103.959600) can0 215#FF30FF04FFFF
(1613256103.959786) can0 216#4040
(1613256103.962979) can0 280#0103C00000009940
(1613256103.965600) can0 292#FFFFFFFFF0001803
(1613256103.965811) can0 245#FFE000180010FFE3
(1613256103.966720) can0 160#3A63B60008FFE0
(1613256103.966923) can0 180#00003B63A6003800
(1613256103.967173) can0 182#FF000000003840E9
(1613256103.967469) can0 1F9#0000000000000000
(1613256103.967801) can0 2DE#0000800A0000FFFF
(1613256103.968045) can0 002#E3FD0007F7C36E07
(1613256103.975600) can0 285#000000000000038A
(1613256103.975789) can0 284#0000000000000389
(1613256103.975888) can0 286#00C0
(1613256103.977096) can0 160#3A63B40008FFE0
(1613256103.977302) can0 180#00003B43A6003900
(1613256103.977549) can0 182#FF000000003940E9
(1613256103.977800) can0 1F9#0000000000000000
(1613256103.978074) can0 002#E3FD000708C36E07
(1613256103.978323) can0 2DE#0000800A0000FFFF
(1613256103.979850) can0 215#FF30FF04FFFF
(1613256103.980038) can0 216#4040
(1613256103.982974) can0 280#0301C00000009840
(1613256103.983178) can0 5C5#4400E653000C007F
(1613256103.985598) can0 292#FFFFFFFFF0001800
(1613256103.985804) can0 245#FFE000180010FFE0
(1613256103.986048) can0 354#000000002A101400
(1613256103.987222) can0 160#3A63B30008FFE0
(1613256103.987427) can0 180#00003B33A6003A00
(1613256103.987647) can0 182#FF000000003A40E9
(1613256103.987887) can0 1F9#0000000000000000
(1613256103.988174) can0 002#E3FD000719C36E07
(1613256103.988426) can0 2DE#0000800A0000FFFF
(1613256103.988697) can0 355#00000000200060
(1613256103.988951) can0 358#0142800082030000
(1613256103.989199) can0 35D#C103000010000000
(1613256103.989449) can0 60D#0806180000000000
(1613256103.995603) can0 285#000000000000048B
(1613256103.995765) can0 284#000000000000048A
(1613256103.995885) can0 286#0000
(1613256103.997386) can0 160#3A63B10008FFE0
(1613256103.997680) can0 180#00003B13A6003B00
(1613256103.997923) can0 182#FF000000003B40E9
(1613256103.998174) can0 002#E3FD00072AC36E07
(1613256103.998425) can0 1F9#0000000000000000
(1613256103.998673) can0 2DE#0000800A0000FFFF
(1613256103.998888) can0 60D#0806182A00000000
(1613256103.999886) can0 215#FF30FF04FFFF
(1613256104.000262) can0 216#4040
(1613256104.002978) can0 280#0301C00000009640
(1613256104.005605) can0 292#FFFFFFFFF0001801
(1613256104.005773) can0 245#FFE000180010FFE1
(1613256104.007600) can0 2DE#0000800A0000FFFF
(1613256104.007816) can0 160#3A63B00008FFE0
(1613256104.008075) can0 002#E3FD00073BC36E07
(1613256104.008328) can0 180#00003B03A6003C00
(1613256104.008599) can0 182#FF000000003C40E9
(1613256104.008805) can0 1F9#0000000000000000
(1613256104.008893) can0 512#0320B38F
(1613256104.009173) can0 551#58000020000080FF
(1613256104.009425) can0 580#0000810000000019
(1613256104.009696) can0 6E2#0000390058080000
(1613256104.015600) can0 285#000000000000058C
(1613256104.015800) can0 284#000000000000058B
(1613256104.015899) can0 286#0040
(1613256104.017850) can0 2DE#0000800A0000FFFF
(1613256104.018060) can0 002#E3FD00074CC36E07
(1613256104.018299) can0 160#3A63AF0008FFE0
(1613256104.018550) can0 180#00003AF3A6003D00
(1613256104.018815) can0 182#FF000000003D40E9
(1613256104.019071) can0 1F9#0000000000000000
(1613256104.019076) can0 342#03236EF3
(1613256104.019844) can0 215#FF30FF04FFFF
(1613256104.020042) can0 216#4040
(1613256104.020718) can0 625#3200C61D1000
(1613256104.022973) can0 280#0301C00000009640
(1613256104.025730) can0 292#FFFFFFFFF0001802
(1613256104.025734) can0 245#FFE000180010FFE2
(1613256104.026049) can0 354#000000002A181400
(1613256104.027975) can0 2DE#0000800A0000FFFF
(1613256104.028187) can0 002#E3FD00075DC36E07
(1613256104.028446) can0 160#3A63AE0008FFE0
(1613256104.028698) can0 180#00003AE3A6003E00
(1613256104.028947) can0 182#FF000000003E40E9
(1613256104.029197) can0 1F9#0000000000000000
(1613256104.029260) can0 355#00000000200060
(1613256104.029636) can0 385#00000000000000
(1613256104.035599) can0 285#000000000000068D
(1613256104.035797) can0 284#000000000000068C
(1613256104.035923) can0 286#0080
(1613256104.037725) can0 2DE#0000800A0000FFFF
(1613256104.037941) can0 002#E3FD00076EC36E07
(1613256104.038429) can0 160#3A63AE0008FFE0
(1613256104.038673) can0 180#00003AE3A6003F00
(1613256104.038922) can0 182#FF000000003F40E9
(1613256104.039173) can0 1F9#0000000000000000
(1613256104.039838) can0 215#FF30FF04FFFF
(1613256104.040050) can0 216#4040
(1613256104.042973) can0 280#0302C00000009740
(1613256104.045602) can0 292#FFFFFFFFF0001803
(1613256104.045769) can0 245#FFE000180010FFE3
(1613256104.047848) can0 2DE#0000800A0000FFFF
(1613256104.048043) can0 002#E3FD00077FC36E07
(1613256104.048719) can0 160#3A63AE0008FFE0
(1613256104.048928) can0 180#00003AE3A6003000
(1613256104.049192) can0 182#FF000000003040E9
(1613256104.049443) can0 1F9#0000000000000000
(1613256104.055602) can0 285#000000000000078E
(1613256104.055765) can0 284#000000000000078D
(1613256104.055926) can0 286#00C0
(1613256104.057724) can0 2DE#0000800A0000FFFF
(1613256104.057942) can0 002#E3FD000780C36E07
(1613256104.058969) can0 160#3A63AD0008FFE0
(1613256104.059177) can0 180#00003AD3A6003100
(1613256104.059445) can0 182#FF000000003140E9
(1613256104.059701) can0 1F9#0000000000000000
(1613256104.059759) can0 215#FF30FF04FFFF
(1613256104.060056) can0 512#032CFFFF
(1613256104.060149) can0 216#4040
(1613256104.062975) can0 280#0302C00000009740
(1613256104.065604) can0 292#FFFFFFFFF0001800
(1613256104.065769) can0 245#FFE000180010FFE0
(1613256104.066048) can0 354#000000002A001400
(1613256104.067849) can0 2DE#0000800A0000FFFF
(1613256104.068039) can0 002#E3FD000791C36E07
(1613256104.068317) can0 342#032CFFFF
(1613256104.068385) can0 355#00000000200060
(1613256104.069217) can0 160#3A63AD0008FFE0
(1613256104.069429) can0 180#00003AD3A6003200
(1613256104.069696) can0 182#FF000000003240E9
(1613256104.069949) can0 1F9#0000000000000000
(1613256104.075601) can0 285#000000000000088F
(1613256104.075803) can0 284#000000000000088E
(1613256104.075886) can0 286#0000
(1613256104.077975) can0 2DE#0000800A0000FFFF
(1613256104.078188) can0 002#E3FD0007A2C36E07
(1613256104.079472) can0 160#3A63AC0008FFE0
(1613256104.079690) can0 180#00003AC3A6003300
(1613256104.079924) can0 182#FF000000003340E9
(1613256104.080173) can0 1F9#0000000000000000
(1613256104.080445) can0 215#FF30FF04FFFF
(1613256104.080797) can0 216#4040
(1613256104.082973) can0 280#0303C00000009740
(1613256104.083146) can0 5C5#4400E653000C007F
(1613256104.085719) can0 292#FFFFFFFFF0001801
(1613256104.085762) can0 245#FFE000180010FFE1
(1613256104.087727) can0 2DE#0000800A0000FFFF
(1613256104.087933) can0 002#E3FD0007B3C36E07
(1613256104.088298) can0 358#0142800082030000
(1613256104.088571) can0 35D#C103000010000000
(1613256104.089710) can0 160#3A63AC0008FFE0
(1613256104.089929) can0 180#00003AC3A6003400
(1613256104.090194) can0 182#FF000000003440E9
(1613256104.090445) can0 1F9#0000000000000000
(1613256104.091342) can0 300#00
(1613256104.095601) can0 285#0000000000000990
(1613256104.095821) can0 284#000000000000098F
(1613256104.095826) can0 286#0040
(1613256104.097851) can0 2DE#0000800A0000FFFF
(1613256104.098068) can0 002#E3FD0007C4C36E07
(1613256104.098300) can0 60D#0806182A00000000
(1613256104.099848) can0 215#FF30FF04FFFF
(1613256104.100037) can0 160#3A63AB0008FFE0
(1613256104.100297) can0 180#00003AB3A6003500
(1613256104.100548) can0 182#FF000000003540E9
(1613256104.100819) can0 1F9#0000000000000000
(1613256104.100823) can0 216#4040
(1613256104.102974) can0 280#0303C00000009740
(1613256104.105725) can0 292#FFFFFFFFF0001802
(1613256104.105782) can0 245#FFE000180010FFE2
(1613256104.106063) can0 354#000000002A081400
(1613256104.107727) can0 2DE#0000800A0000FFFF
(1613256104.107783) can0 355#00000000200060
(1613256104.108071) can0 002#E3FD0007D5C36E07
(1613256104.110222) can0 160#3A63AB0008FFE0
(1613256104.110420) can0 180#00003AB3A6003600
(1613256104.110672) can0 182#FF000000003640E9
(1613256104.110946) can0 1F9#0000000000000000
(1613256104.111198) can0 551#58000020000080FF
(1613256104.111449) can0 580#0000810000000019
(1613256104.111453) can0 300#00
(1613256104.111799) can0 6E2#00003A00000C0000
(1613256104.115598) can0 285#0000000000000A91
(1613256104.115813) can0 284#0000000000000A90
(1613256104.115885) can0 286#0080
(1613256104.117853) can0 2DE#0000800A0000FFFF
(1613256104.118070) can0 002#E3FD0007E6C36E07
(1613256104.119723) can0 215#FF30FF04FFFF
(1613256104.119910) can0 216#4040
(1613256104.120470) can0 160#3A63AB0008FFE0
(1613256104.120680) can0 180#00003AB3A6003700
(1613256104.120946) can0 182#FF000000003740E9
(1613256104.121196) can0 1F9#0000000000000000
(1613256104.121260) can0 625#3200C61D1000
(1613256104.122972) can0 280#0303C00000009740
(1613256104.125599) can0 292#FFFFFFFFF0001803
(1613256104.125813) can0 245#FFE000180010FFE3
(1613256104.127978) can0 2DE#0000800A0000FFFF
(1613256104.128174) can0 002#E3FD0007F7C36E07
(1613256104.128272) can0 385#00000000000000
(1613256104.130723) can0 160#3A63AB0008FFE0
(1613256104.130926) can0 180#00003AB3A6003800
(1613256104.131014) can0 182#FF000000003840E9
(1613256104.131305) can0 1F9#0000000000000000
(1613256104.131392) can0 300#00
(1613256104.135598) can0 285#0000000000000B92
(1613256104.135814) can0 284#0000000000000B91
(1613256104.135885) can0 286#00C0
(1613256104.137728) can0 2DE#0000800A0000FFFF
(1613256104.137890) can0 002#E3FD000708C36E07
(1613256104.139722) can0 215#FF30FF04FFFF
(1613256104.139889) can0 216#4040
(1613256104.140975) can0 160#3A63AB0008FFE0
(1613256104.141189) can0 180#00003AB3A6003900
(1613256104.141260) can0 182#FF000000003940E9
(1613256104.141674) can0 1F9#0000000000000000
(1613256104.142976) can0 280#0301C00000009C40
(1613256104.145726) can0 292#82381C7FE0001800
(1613256104.145941) can0 245#FFE000180010FFE0
(1613256104.146196) can0 354#000000002A101400
(1613256104.147848) can0 2DE#0000800A0000FFFF
(1613256104.148019) can0 002#E3FD000719C36E07
(1613256104.148296) can0 355#00000000200060
(1613256104.151098) can0 160#3A63AA0008FFE0
(1613256104.151305) can0 180#00003AA3A6003A00
(1613256104.151673) can0 182#FF000000003A40E9
(1613256104.151778) can0 1F9#0000000000000000
(1613256104.151886) can0 300#00
(1613256104.155601) can0 285#0000000000000C93
(1613256104.155820) can0 284#0000000000000C92
(1613256104.155884) can0 286#0000
(1613256104.157726) can0 2DE#0000800A0000FFFF
(1613256104.157890) can0 002#E3FD00072AC36E07
(1613256104.159723) can0 215#FF30FF04FFFF
(1613256104.159887) can0 216#4040
(1613256104.161349) can0 160#3A63AA0008FFE0
(1613256104.161698) can0 180#00003AA3A6003B00
(1613256104.161760) can0 182#FF000000003B40E9
(1613256104.162040) can0 1F9#0000000000000000
(1613256104.162846) can0 280#0303C00000009D40
(1613256104.165601) can0 292#82681E7FE0001801
(1613256104.165816) can0 245#FFE000180010FFE1
(1613256104.167847) can0 2DE#0000800A0000FFFF
(1613256104.168018) can0 002#E3FD00073BC36E07
(1613256104.171348) can0 5E4#040000
(1613256104.171353) can0 300#00
(1613256104.171674) can0 160#3A63AB0008FFE0
(1613256104.171780) can0 180#00003AB3A6003C00
(1613256104.172051) can0 182#FF000000003C40E9
(1613256104.172297) can0 1F9#0000000000000000
(1613256104.175601) can0 285#0000000000000D94
(1613256104.175792) can0 284#0000000000000D93
(1613256104.175886) can0 286#0040
(1613256104.177973) can0 2DE#0000800A0000FFFF
(1613256104.178185) can0 002#E3FD00074CC36E07
(1613256104.179723) can0 215#FF30FF04FFFF
(1613256104.179888) can0 216#4040
(1613256104.181974) can0 160#3A63AA0008FFE0
(1613256104.182187) can0 180#00003AA3A6003D00
(1613256104.182445) can0 182#FF000000003D40E9
(1613256104.182695) can0 1F9#0000000000000000
(1613256104.182948) can0 280#0303C00000009D40
(1613256104.183194) can0 5C5#4400E653000C007F
(1613256104.185725) can0 292#82681F7FD0001802
(1613256104.185783) can0 245#FFE000180010FFE2
(1613256104.186050) can0 354#000000002A181400
(1613256104.187637) can0 2DE#0000800A0000FFFF
(1613256104.187897) can0 355#00000000200060
(1613256104.188185) can0 002#E3FD00075DC36E07
(1613256104.188423) can0 358#0142800082030000
(1613256104.188674) can0 35D#C103000010000000
(1613256104.191347) can0 300#00
(1613256104.192041) can0 160#3A63AA0008FFE0
(1613256104.192294) can0 180#00003AA3A6003E00
(1613256104.192672) can0 182#FF000000003E40E9
(1613256104.192782) can0 1F9#0000000000000000
(1613256104.195597) can0 285#0000000000000E95
(1613256104.195783) can0 284#0000000000000E94
(1613256104.195886) can0 286#0080
(1613256104.197974) can0 2DE#0000800A0000FFFF
(1613256104.198022) can0 002#E3FD00076EC36E07
(1613256104.198308) can0 60D#0806182A00000000
(1613256104.199988) can0 215#FF30FF04FFFF
(1613256104.200170) can0 216#4040
(1613256104.202349) can0 160#3A63AA0008FFE0
(1613256104.202543) can0 180#00003AA3A6003F00
(1613256104.202796) can0 182#FF000000003F40E9
(1613256104.203074) can0 1F9#0000000000000000
(1613256104.203301) can0 280#0303C00000009D40
(1613256104.205597) can0 292#8238217FD0001803
(1613256104.205793) can0 245#FFE000180010FFE3
(1613256104.207723) can0 2DE#0000800A0000FFFF
(1613256104.207917) can0 002#E3FD00077FC36E07
(1613256104.211223) can0 300#00
(1613256104.212599) can0 160#3A63AA0008FFE0
(1613256104.212821) can0 180#00003AA3A6003000
(1613256104.213055) can0 182#FF000000003040E9
(1613256104.213301) can0 1F9#0000000000000000
(1613256104.213574) can0 551#58000020000080FF
(1613256104.213821) can0 580#0000810000000019
(1613256104.214053) can0 6E2#00003B0000100000
(1613256104.215597) can0 285#0000000000000F96
(1613256104.215787) can0 284#0000000000000F95
(1613256104.215925) can0 286#00C0
(1613256104.217975) can0 2DE#0000800A0000FFFF
(1613256104.218185) can0 002#E3FD000780C36E07
(1613256104.219723) can0 215#FF30FF04FFFF
(1613256104.220043) can0 216#4040
(1613256104.220423) can0 625#3200C61D1000
(1613256104.222848) can0 280#0302C00000009D40
(1613256104.223038) can0 160#3A63AA0008FFE0
(1613256104.223346) can0 180#00003AA3A6003100
(1613256104.223539) can0 182#FF000000003140E9
(1613256104.223821) can0 1F9#0000000000000000
(1613256104.225601) can0 292#82481E7FD0001800
(1613256104.225787) can0 245#FFE000180010FFE0
(1613256104.226045) can0 354#000000002A001400
(1613256104.227975) can0 2DE#0000800A0000FFFF
(1613256104.228169) can0 002#E3FD000791C36E07
(1613256104.228440) can0 355#00000000200060
(1613256104.228700) can0 385#00000000000000
(1613256104.231350) can0 300#00
(1613256104.233099) can0 160#3A63AA0008FFE0
(1613256104.233292) can0 180#00003AA3A6003200
(1613256104.233572) can0 182#FF000000003240E9
(1613256104.233800) can0 1F9#0000000000000000
(1613256104.235598) can0 285#0000000000001097
(1613256104.235789) can0 284#0000000000001096
(1613256104.235917) can0 286#0000
(1613256104.237725) can0 2DE#0000800A0000FFFF
(1613256104.237925) can0 002#E3FD0007A2C36E07
(1613256104.239722) can0 215#FF30FF04FFFF
(1613256104.240078) can0 216#4040
(1613256104.242848) can0 280#0300C00000009D40
(1613256104.243297) can0 160#3A63AA0008FFE0
(1613256104.243554) can0 180#00003AA3A6003300
(1613256104.243803) can0 182#FF000000003340E9
(1613256104.244060) can0 1F9#0000000000000000
(1613256104.245723) can0 292#82781E7FD0001801
(1613256104.245728) can0 245#FFE000180010FFE1
(1613256104.247848) can0 2DE#0000800A0000FFFF
(1613256104.248028) can0 002#E3FD0007B3C36E07
(1613256104.251225) can0 300#00
(1613256104.253602) can0 160#3A63AA0008FFE0
(1613256104.253801) can0 180#00003AA3A6003400
(1613256104.254051) can0 182#FF000000003440E9
(1613256104.254345) can0 1F9#0000000000000000
(1613256104.255724) can0 285#0000000000001198
(1613256104.255925) can0 284#0000000000001197
(1613256104.256039) can0 286#0040
(1613256104.257722) can0 2DE#0000800A0000FFFF
(1613256104.257924) can0 002#E3FD0007C4C36E07
(1613256104.259722) can0 215#FF30FF04FFFF
(1613256104.260051) can0 216#4040
(1613256104.262847) can0 280#0300C00000009D40
(1613256104.263847) can0 160#3A63AA0008FFE0
(1613256104.264032) can0 180#00003AA3A6003500
(1613256104.264300) can0 182#FF000000003540E9
(1613256104.264551) can0 1F9#0000000000000000
(1613256104.265845) can0 292#8268217FD0001802
(1613256104.266036) can0 245#FFE000180010FFE2
(1613256104.266303) can0 354#000000002A081400
(1613256104.267957) can0 2DE#0000800A0000FFFF
(1613256104.268023) can0 002#E3FD0007D5C36E07
(1613256104.268291) can0 355#00000000200060
(1613256104.271348) can0 5E4#040000
(1613256104.271353) can0 300#00
(1613256104.274101) can0 160#3A63AA0008FFE0
(1613256104.274302) can0 180#00003AA3A6003600
(1613256104.274460) can0 182#FF000000003640E9
(1613256104.274661) can0 1F9#0000000000000000
(1613256104.275846) can0 285#0000000000001299
(1613256104.276059) can0 284#0000000000001298
(1613256104.276164) can0 286#0080
(1613256104.277972) can0 2DE#0000800A0000FFFF
(1613256104.278164) can0 002#E3FD0007E6C36E07
(1613256104.279793) can0 215#FF30FF04FFFF
(1613256104.280044) can0 216#4040
(1613256104.282849) can0 280#0302C00000009E40
(1613256104.283050) can0 5C5#4400E653000C007F
(1613256104.284352) can0 160#3A63AA0008FFE0
(1613256104.284670) can0 180#00003AA3A6003700
(1613256104.284804) can0 182#FF000000003740E9
(1613256104.285051) can0 1F9#0000000000000000
(1613256104.285842) can0 292#82B81F7FC0001803
(1613256104.286036) can0 245#FFE000180010FFE3
(1613256104.287723) can0 2DE#0000800A0000FFFF
(1613256104.287920) can0 358#0142800082030000
(1613256104.288172) can0 002#E3FD0007F7C36E07
(1613256104.288444) can0 35D#C103000010000000
(1613256104.291348) can0 300#00
(1613256104.294600) can0 160#3A63AA0008FFE0
(1613256104.294791) can0 180#00003AA3A6003800
(1613256104.295078) can0 182#FF000000003840E9
(1613256104.295182) can0 1F9#0000000000000000
(1613256104.295839) can0 285#000000000000139A
(1613256104.296038) can0 284#0000000000001399
(1613256104.296163) can0 286#00C0
(1613256104.297848) can0 2DE#0000800A0000FFFF
(1613256104.298040) can0 002#E3FD000708C36E07
(1613256104.298298) can0 60D#0806182A00000000
(1613256104.299958) can0 215#FF30FF04FFFF
(1613256104.300300) can0 216#4040
(1613256104.302972) can0 280#0302C00000009E40
(1613256104.304851) can0 160#3A63AA0008FFE0
(1613256104.305049) can0 180#00003AA3A6003900
(1613256104.305164) can0 182#FF000000003940E9
(1613256104.305438) can0 1F9#0000000000000000
(1613256104.305797) can0 292#82C81E7FC0001800
(1613256104.306070) can0 245#FFE000180010FFE0
(1613256104.306301) can0 354#000000002A101400
(1613256104.307721) can0 2DE#0000800A0000FFFF
(1613256104.307758) can0 355#00000000200060
(1613256104.308039) can0 002#E3FD000719C36E07
(1613256104.311350) can0 300#00
(1613256104.314975) can0 160#3A63AA0008FFE0
(1613256104.315186) can0 180#00003AA3A6003A00
(1613256104.315420) can0 182#FF000000003A40E9
(1613256104.315672) can0 1F9#0000000000000000
(1613256104.315918) can0 284#000000000000149A
(1613256104.316174) can0 285#000000000000149B
(1613256104.316302) can0 286#0000
(1613256104.316673) can0 551#58000020000080FF
(1613256104.316804) can0 580#0000810000000019
(1613256104.317064) can0 6E2#000038000F140000
(1613256104.317966) can0 2DE#0000800A0000FFFF
(1613256104.318168) can0 002#E3FD00072AC36E07
(1613256104.319846) can0 215#FF30FF04FFFF
(1613256104.320059) can0 216#4040
(1613256104.320593) can0 625#3200C61D1000
(1613256104.322971) can0 280#0302C00000009E40
(1613256104.325349) can0 160#3A63AA0008FFE0
(1613256104.325542) can0 180#00003AA3A6003B00
(1613256104.325663) can0 182#FF000000003B40E9
(1613256104.325935) can0 1F9#0000000000000000
(1613256104.326174) can0 245#FFE000180010FFE1
(1613256104.326422) can0 292#82481F7FC0001801
(1613256104.327975) can0 385#00000000000000
(1613256104.328192) can0 002#E3FD00073BC36E07
(1613256104.328441) can0 2DE#0000800A0000FFFF
(1613256104.331222) can0 300#00
(1613256104.335477) can0 160#3A63AA0008FFE0
(1613256104.335670) can0 180#00003AA3A6003C00
(1613256104.335949) can0 182#FF000000003C40E9
(1613256104.336177) can0 1F9#0000000000000000
(1613256104.336449) can0 284#000000000000159B
(1613256104.336677) can0 285#000000000000159C
(1613256104.336798) can0 286#0040
(1613256104.337719) can0 2DE#0000800A0000FFFF
(1613256104.337910) can0 002#E3FD00074CC36E07
(1613256104.339848) can0 215#FF30FF04FFFF
(1613256104.340063) can0 216#4040
(1613256104.342847) can0 280#0302C00000009E40
(1613256104.345722) can0 160#3A63AA0008FFE0
(1613256104.345917) can0 180#00003AA3A6003D00
(1613256104.346173) can0 182#FF000000003D40E9
(1613256104.346422) can0 1F9#0000000000000000
(1613256104.346690) can0 245#FFE000180010FFE2
(1613256104.346925) can0 292#8268217FC0001802
(1613256104.347198) can0 354#000000002A181400
(1613256104.347844) can0 2DE#0000800A0000FFFF
(1613256104.348040) can0 002#E3FD00075DC36E07
(1613256104.348324) can0 355#00000000200060
(1613256104.351346) can0 300#00
(1613256104.355722) can0 285#000000000000169D
(1613256104.355914) can0 284#000000000000169C
(1613256104.356196) can0 160#3A63AA0008FFE0
(1613256104.356426) can0 180#00003AA3A6003E00
(1613256104.356703) can0 182#FF000000003E40E9
(1613256104.356926) can0 1F9#0000000000000000
(1613256104.357038) can0 286#0080
(1613256104.357719) can0 2DE#0000800A0000FFFF
(1613256104.357914) can0 002#E3FD00076EC36E07
(1613256104.359848) can0 215#FF30FF04FFFF
(1613256104.360054) can0 216#4040
(1613256104.362846) can0 280#0302C00000009E40
(1613256104.365721) can0 292#8268237FC0001803
(1613256104.365919) can0 245#FFE000180010FFE3
(1613256104.366169) can0 160#3A63AA0008FFE0
(1613256104.366425) can0 180#00003AA3A6003F00
(1613256104.366675) can0 182#FF000000003F40E9
(1613256104.366919) can0 1F9#0000000000000000
(1613256104.367842) can0 2DE#0000800A0000FFFF
(1613256104.368058) can0 002#E3FD00077FC36E07
(1613256104.371347) can0 5E4#040000
(1613256104.371352) can0 300#00
(1613256104.375721) can0 285#000000000000179E
(1613256104.375918) can0 284#000000000000179D
(1613256104.376198) can0 286#00C0
(1613256104.376426) can0 160#3A63AA0008FFE0
(1613256104.376675) can0 180#00003AA3A6003000
(1613256104.376925) can0 182#FF000000003040E9
(1613256104.377193) can0 1F9#0000000000000000
(1613256104.377972) can0 2DE#0000800A0000FFFF
(1613256104.378164) can0 002#E3FD000780C36E07
(1613256104.379791) can0 215#FF30FF04FFFF
(1613256104.380220) can0 216#4040
(1613256104.382971) can0 280#0304C00000009E40
(1613256104.383184) can0 5C5#4400E653000C007F
(1613256104.385849) can0 292#8248237FC0001800
(1613256104.386039) can0 245#FFE000180010FFE0
(1613256104.386163) can0 354#000000002A001400
(1613256104.386841) can0 160#3A63AA0008FFE0
(1613256104.387036) can0 180#00003AA3A6003100
(1613256104.387163) can0 182#FF000000003140E9
(1613256104.387547) can0 1F9#0000000000000000
(1613256104.387818) can0 2DE#0000800A0000FFFF
(1613256104.387918) can0 355#00000000200060
(1613256104.388163) can0 002#E3FD000791C36E07
(1613256104.388421) can0 358#0142800082030000
(1613256104.388691) can0 35D#C103000010000000
(1613256104.391278) can0 300#00
(1613256104.395724) can0 285#000000000000189F
(1613256104.395914) can0 284#000000000000189E
(1613256104.396038) can0 286#0000
(1613256104.396969) can0 160#3A63AA0008FFE0
(1613256104.397166) can0 180#00003AA3A6003200
(1613256104.397420) can0 182#FF000000003240E9
(1613256104.397702) can0 1F9#0000000000000000
(1613256104.397924) can0 2DE#0000800A0000FFFF
(1613256104.398175) can0 002#E3FD0007A2C36E07
(1613256104.398453) can0 60D#0806182A00000000
(1613256104.400224) can0 215#FF30FF04FFFF
(1613256104.400435) can0 216#4040
(1613256104.402972) can0 280#0304C00000009E40
(1613256104.405845) can0 292#82481F7FD0001801
(1613256104.406041) can0 245#FFE000180010FFE1
(1613256104.407223) can0 160#3A63AA0008FFE0
(1613256104.407413) can0 180#00003AA3A6003300
(1613256104.407694) can0 182#FF000000003340E9
(1613256104.407923) can0 1F9#0000000000000000
(1613256104.408192) can0 002#E3FD0007B3C36E07
(1613256104.408423) can0 2DE#0000800A0000FFFF
(1613256104.411219) can0 300#00
(1613256104.415846) can0 285#00000000000019A0
(1613256104.416049) can0 284#000000000000199F
(1613256104.416053) can0 286#0040
(1613256104.417472) can0 160#3A63AA0008FFE0
(1613256104.417668) can0 180#00003AA3A6003400
(1613256104.417944) can0 182#FF000000003440E9
(1613256104.418048) can0 002#E3FD0007C4C36E07
(1613256104.418306) can0 1F9#0000000000000000
(1613256104.418668) can0 2DE#0000800A0000FFFF
(1613256104.418788) can0 551#58000020000080FF
(1613256104.419043) can0 580#0000810000000019
(1613256104.419297) can0 6E2#0000390000180000
(1613256104.420172) can0 215#FF30FF04FFFF
(1613256104.420547) can0 216#4040
(1613256104.421039) can0 625#3200C61D1000
(1613256104.423098) can0 280#03FF800000009B40
(1613256104.425852) can0 292#82681F7FD0001802
(1613256104.426040) can0 245#FFE000180010FFE2
(1613256104.426319) can0 354#000000002A081400
(1613256104.427722) can0 160#3A63AA0008FFE0
(1613256104.427919) can0 180#00003AA3A6003500
(1613256104.428193) can0 002#E3FD0007D5C36E07
(1613256104.428425) can0 182#FF000000003540E9
(1613256104.428703) can0 1F9#0000000000000000
(1613256104.428925) can0 2DE#0000800A0000FFFF
(1613256104.429177) can0 355#00000000200060
(1613256104.429293) can0 385#00000000000000
(1613256104.431347) can0 300#00
(1613256104.435848) can0 285#0000000000001AA1
(1613256104.436061) can0 284#0000000000001AA0
(1613256104.436065) can0 286#0080
(1613256104.437723) can0 2DE#0000800A0000FFFF
(1613256104.437915) can0 160#3A63AA0008FFE0
(1613256104.438191) can0 002#E3FD0007E6C36E07
(1613256104.438425) can0 180#00003AA3A6003600
(1613256104.438691) can0 182#FF000000003640E9
(1613256104.438787) can0 1F9#0000000000000000
(1613256104.440045) can0 215#FF30FF04FFFF
(1613256104.440421) can0 216#4040
(1613256104.442850) can0 280#0300C00000009D40
(1613256104.445726) can0 292#82981E7FD0001803
(1613256104.445932) can0 245#FFE000180010FFE3
(1613256104.447848) can0 2DE#0000800A0000FFFF
(1613256104.448060) can0 002#E3FD0007F7C36E07
(1613256104.448177) can0 160#3A63AA0008FFE0
(1613256104.448436) can0 180#00003AA3A6003700
(1613256104.448723) can0 182#FF000000003740E9
(1613256104.448916) can0 1F9#0000000000000000
(1613256104.451220) can0 300#00
(1613256104.455722) can0 285#0000000000001BA2
(1613256104.455917) can0 284#0000000000001BA1
(1613256104.456036) can0 286#00C0
(1613256104.457595) can0 2DE#0000800A0000FFFF
(1613256104.458096) can0 002#E3FD000708C36E07
(1613256104.458288) can0 160#3A63AA0008FFE0
(1613256104.458671) can0 180#00003AA3A6003800
(1613256104.458798) can0 182#FF000000003840E9
(1613256104.459048) can0 1F9#0000000000000000
(1613256104.460055) can0 215#FF30FF04FFFF
(1613256104.460422) can0 216#4040
(1613256104.462846) can0 280#0300C00000009D40
(1613256104.465847) can0 292#82681E7FD0001800
(1613256104.466038) can0 245#FFE000180010FFE0
(1613256104.466321) can0 354#000000002A101400
(1613256104.467849) can0 2DE#0000800A0000FFFF
(1613256104.468049) can0 002#E3FD000719C36E07
(1613256104.468318) can0 355#00000000200060
(1613256104.468670) can0 160#3A63AA0008FFE0
(1613256104.468939) can0 180#00003AA3A6003900
(1613256104.469055) can0 182#FF000000003940E9
(1613256104.469302) can0 1F9#0000000000000000
(1613256104.471346) can0 5E4#040000
(1613256104.471351) can0 300#00
(1613256104.475845) can0 285#0000000000001CA3
(1613256104.476058) can0 284#0000000000001CA2
(1613256104.476061) can0 286#0000
(1613256104.477971) can0 2DE#0000800A0000FFFF
(1613256104.478163) can0 002#E3FD00072AC36E07
(1613256104.478843) can0 160#3A63AA0008FFE0
(1613256104.479035) can0 180#00003AA3A6003A00
(1613256104.479344) can0 182#FF000000003A40E9
(1613256104.479536) can0 1F9#0000000000000000
(1613256104.480042) can0 215#FF30FF04FFFF
(1613256104.480421) can0 216#4040
(1613256104.482972) can0 280#0300C00000009D40
(1613256104.483164) can0 5C5#4400E653000C007F
(1613256104.485846) can0 292#82781F7FD0001801
(1613256104.486038) can0 245#FFE000180010FFE1
(1613256104.487596) can0 358#0142800082030000
(1613256104.487787) can0 2DE#0000800A0000FFFF
(1613256104.488039) can0 002#E3FD00073BC36E07
(1613256104.488318) can0 35D#C103000010000000
(1613256104.489217) can0 160#3A63AA0008FFE0
(1613256104.489409) can0 180#00003AA3A6003B00
(1613256104.489716) can0 182#FF000000003B40E9
(1613256104.489909) can0 1F9#0000000000000000
(1613256104.491218) can0 300#00
(1613256104.495721) can0 285#0000000000001DA4
(1613256104.495935) can0 284#0000000000001DA3
(1613256104.496192) can0 286#0040
(1613256104.497722) can0 60D#0806182A00000000
(1613256104.497761) can0 2DE#0000800A0000FFFF
(1613256104.498053) can0 002#E3FD00074CC36E07
(1613256104.499348) can0 160#3A63AA0008FFE0
(1613256104.499538) can0 180#00003AA3A6003C00
(1613256104.499814) can0 182#FF000000003C40E9
(1613256104.500042) can0 1F9#0000000000000000
(1613256104.500314) can0 215#FF30FF04FFFF
(1613256104.500716) can0 216#4040
(1613256104.502973) can0 280#0302C00000009E40
(1613256104.505845) can0 292#82481F7FD0001802
(1613256104.506042) can0 245#FFE000180010FFE2
(1613256104.506162) can0 354#000000002A181400
(1613256104.507720) can0 2DE#0000800A0000FFFF
(1613256104.507726) can0 355#00000000200060
(1613256104.508041) can0 002#E3FD00075DC36E07
(1613256104.509720) can0 160#3A63AA0008FFE0
(1613256104.509759) can0 180#00003AA3A6003D00
(1613256104.510059) can0 182#FF000000003D40E9
(1613256104.510300) can0 1F9#0000000000000000
(1613256104.511204) can0 300#00
(1613256104.515721) can0 285#0000000000001EA5
(1613256104.515920) can0 284#0000000000001EA4
(1613256104.516040) can0 286#0080
(1613256104.517845) can0 2DE#0000800A0000FFFF
(1613256104.518036) can0 002#E3FD00076EC36E07
(1613256104.519848) can0 160#3A63AA0008FFE0
(1613256104.520046) can0 180#00003AA3A6003E00
(1613256104.520318) can0 182#FF000000003E40E9
(1613256104.520592) can0 1F9#0000000000000000
(1613256104.520785) can0 215#FF30FF04FFFF
(1613256104.521072) can0 551#58000020000080FF
(1613256104.521076) can0 216#4040
(1613256104.521422) can0 580#0000810000000019
(1613256104.521693) can0 6E2#00003A000E1C0000
(1613256104.521807) can0 625#3200C61D1000
(1613256104.522914) can0 280#0301C00000009640
(1613256104.525847) can0 292#82481F7FD0001803
(1613256104.526037) can0 245#FFE000180010FFE3
(1613256104.527595) can0 385#00000000000000
(1613256104.527792) can0 2DE#0000800A0000FFFF
(1613256104.528049) can0 002#E3FD00077FC36E07
(1613256104.530097) can0 160#3A63AA0008FFE0
(1613256104.530306) can0 180#00003AA3A6003F00
(1613256104.530671) can0 182#FF000000003F40E9
(1613256104.530791) can0 1F9#0000000000000000
(1613256104.531215) can0 300#00
(1613256104.535846) can0 285#0000000000001FA6
(1613256104.536039) can0 284#0000000000001FA5
(1613256104.536054) can0 286#00C0
(1613256104.537721) can0 2DE#0000800A0000FFFF
(1613256104.537916) can0 002#E3FD000780C36E07
(1613256104.539977) can0 215#FF30FF04FFFF
(1613256104.540319) can0 160#3A63AA0008FFE0
(1613256104.540553) can0 180#00003AA3A6003000
